!Murata Part Number: GRM155R61C105KA12
!These Parameters are Measured in Series Mode Connection
!       o--ll--o
!Port1            Port2
!       o------o
!Operation Temp=25[degC], DC Bias Voltage=0[V]
!Freq. Start=100[Hz] Stop=6[GHz], 401[Steps]
!Data Generated on Mar 6, 2017
# Hz S RI R 50
!Freq.(Hz) S11(Real) S11(Imag) S21(Real) S21(Imag) S12(Real) S12(Imag) S22(Real) S22(Imag)
100.0 0.9971202667860706 -0.03300126197274357 0.002879733213929335 0.03300126197274357 0.002879733213929335 0.03300126197274357 0.9971202667860706 -0.03300126197274357
104.57921513303334 0.9969900322927937 -0.03447857786574069 0.0030099677072062785 0.03447857786574069 0.0030099677072062785 0.03447857786574069 0.9969900322927937 -0.03447857786574069
109.3681223784127 0.9968486054073694 -0.03602307166466897 0.0031513945926306 0.03602307166466897 0.0031513945926306 0.03602307166466897 0.9968486054073694 -0.03602307166466897
114.3763239890794 0.9966949347665 -0.03763760694907956 0.0033050652335001956 0.03763760694907956 0.0033050652335001956 0.03763760694907956 0.9966949347665 -0.03763760694907956
119.61386192579457 0.9965278840074018 -0.03932515442939011 0.0034721159925981656 0.03932515442939011 0.0034721159925981656 0.03932515442939011 0.9965278840074018 -0.03932515442939011
125.09123799230618 0.9963462251194164 -0.04108879438061871 0.003653774880583625 0.04108879438061871 0.003653774880583625 0.04108879438061871 0.9963462251194164 -0.04108879438061871
130.8194348925486 0.9961486313983965 -0.042931718925375936 0.0038513686016034905 0.042931718925375936 0.0038513686016034905 0.042931718925375936 0.9961486313983965 -0.042931718925375936
136.8099382520969 0.9959336699923711 -0.04485723415386259 0.00406633000762895 0.04485723415386259 0.00406633000762895 0.04485723415386259 0.9959336699923711 -0.04485723415386259
143.0747596480305 0.995699794025571 -0.04686876207049232 0.004300205974428997 0.04686876207049232 0.004300205974428997 0.04686876207049232 0.995699794025571 -0.04686876207049232
149.6264606933842 0.995445334285663 -0.04896984235914798 0.004554665714337024 0.04896984235914798 0.004554665714337024 0.04896984235914798 0.995445334285663 -0.04896984235914798
156.47817822447783 0.9951684904556516 -0.05116413396194372 0.004831509544348379 0.05116413396194372 0.004831509544348379 0.05116413396194372 0.9951684904556516 -0.05116413396194372
163.643650641628 0.9948673218670452 -0.05345541646957337 0.005132678132954937 0.05345541646957337 0.005132678132954937 0.05345541646957337 0.9948673218670452 -0.05345541646957337
171.13724545605763 0.9945397377441376 -0.05584759132465877 0.0054602622558623075 0.05584759132465877 0.0054602622558623075 0.05584759132465877 0.9945397377441376 -0.05584759132465877
178.97398809823787 0.9941834869002465 -0.05834468284262463 0.005816513099753602 0.05834468284262463 0.005816513099753602 0.05834468284262463 0.9941834869002465 -0.05834468284262463
187.1695920454257 0.9937961468350371 -0.06095083905702066 0.006203853164962816 0.06095083905702066 0.006203853164962816 0.06095083905702066 0.9937961468350371 -0.06095083905702066
195.74049032880657 0.9933751121673353 -0.0636703323972212 0.0066248878326646546 0.0636703323972212 0.0066248878326646546 0.0636703323972212 0.9933751121673353 -0.0636703323972212
204.70386848341695 0.9929175823197505 -0.06650756020518958 0.007082417680249327 0.06650756020518958 0.007082417680249327 0.06650756020518958 0.9929175823197505 -0.06650756020518958
214.0776990069143 0.9924205483499455 -0.06946704509343676 0.007579451650054351 0.06946704509343676 0.007579451650054351 0.06946704509343676 0.9924205483499455 -0.06946704509343676
223.88077739628844 0.9918807787985302 -0.07255343513717308 0.008119221201469762 0.07255343513717308 0.008119221201469762 0.07255343513717308 0.9918807787985302 -0.07255343513717308
234.132759834772 0.9912948043957913 -0.07577150387851939 0.008705195604208632 0.07577150387851939 0.008705195604208632 0.07577150387851939 0.9912948043957913 -0.07577150387851939
244.85420260451448 0.9906589014395605 -0.0791261500979797 0.009341098560439489 0.0791261500979797 0.009341098560439489 0.0791261500979797 0.9906589014395605 -0.0791261500979797
256.06660330404856 0.9899690736257656 -0.08262239727663433 0.010030926374234474 0.08262239727663433 0.010030926374234474 0.08262239727663433 0.9899690736257656 -0.08262239727663433
267.792443953192 0.9892210320834187 -0.08626539263024675 0.01077896791658131 0.08626539263024675 0.01077896791658131 0.08626539263024675 0.9892210320834187 -0.08626539263024675
280.0552360718164 0.988410173339343 -0.09006040554252667 0.011589826660656997 0.09006040554252667 0.011589826660656997 0.09006040554252667 0.988410173339343 -0.09006040554252667
292.87956782286926 0.9875315549177693 -0.09401282515844392 0.012468445082230726 0.09401282515844392 0.012468445082230726 0.09401282515844392 0.9875315549177693 -0.09401282515844392
306.2911533141767 0.9865798682694547 -0.09812815681970004 0.013420131730545286 0.09812815681970004 0.013420131730545286 0.09812815681970004 0.9865798682694547 -0.09812815681970004
320.3168841578819 0.9855494087279105 -0.10241201693403425 0.0144505912720894 0.10241201693403425 0.0144505912720894 0.10241201693403425 0.9855494087279105 -0.10241201693403425
334.9848833909005 0.9844340422105045 -0.1068701257697941 0.015565957789495466 0.1068701257697941 0.015565957789495466 0.1068701257697941 0.9844340422105045 -0.1068701257697941
350.32456186451077 0.9832271684232486 -0.11150829756003666 0.01677283157675153 0.11150829756003666 0.01677283157675153 0.11150829756003666 0.9832271684232486 -0.11150829756003666
366.36667721614316 0.9819216803930783 -0.1163324271903516 0.018078319606921633 0.1163324271903516 0.018078319606921633 0.1163324271903516 0.9819216803930783 -0.1163324271903516
383.1433955416162 0.9805099202425697 -0.12134847263656355 0.019490079757430234 0.12134847263656355 0.019490079757430234 0.12134847263656355 0.9805099202425697 -0.12134847263656355
400.68835589147574 0.9789836312403081 -0.12656243221812302 0.021016368759691952 0.12656243221812302 0.021016368759691952 0.12656243221812302 0.9789836312403081 -0.12656243221812302
419.03673772076064 0.9773339063051163 -0.1319803156463039 0.02266609369488384 0.1319803156463039 0.02266609369488384 0.1319803156463039 0.9773339063051163 -0.1319803156463039
438.225331427439 0.9755511333121185 -0.1376081077790972 0.024448866687881602 0.1376081077790972 0.024448866687881602 0.1376081077790972 0.9755511333121185 -0.1376081077790972
458.2926121209498 0.973624937739884 -0.1434517239521143 0.02637506226011601 0.1434517239521143 0.02637506226011601 0.1434517239521143 0.973624937739884 -0.1434517239521143
479.2788167687661 0.9715441234062582 -0.14951695574099902 0.028455876593741897 0.14951695574099902 0.028455876593741897 0.14951695574099902 0.9715441234062582 -0.14951695574099902
501.22602487566456 0.9692966122609533 -0.15580940602854648 0.0307033877390466 0.15580940602854648 0.0307033877390466 0.15580940602854648 0.9692966122609533 -0.15580940602854648
524.1782428574726 0.9668693844304994 -0.16233441230023668 0.03313061556950063 0.16233441230023668 0.03313061556950063 0.16233441230023668 0.9668693844304994 -0.16233441230023668
548.1814922784702 0.9642484199412757 -0.16909695717521028 0.03575158005872429 0.16909695717521028 0.03575158005872429 0.16909695717521028 0.9642484199412757 -0.16909695717521028
573.2839021293739 0.9614186437757045 -0.176101565295007 0.03858135622429543 0.176101565295007 0.03858135622429543 0.176101565295007 0.9614186437757045 -0.176101565295007
599.5358053309263 0.9583638761432849 -0.18335218583857618 0.041636123856714974 0.18335218583857618 0.041636123856714974 0.18335218583857618 0.9583638761432849 -0.18335218583857618
626.9898396565933 0.9550667900714803 -0.19085206010870956 0.044933209928519714 0.19085206010870956 0.044933209928519714 0.19085206010870956 0.9550667900714803 -0.19085206010870956
655.7010532767296 0.9515088786421071 -0.19860357384305954 0.048491121357892956 0.19860357384305954 0.048491121357892956 0.19860357384305954 0.9515088786421071 -0.19860357384305954
685.7270151358366 0.9476704344178636 -0.20660809414535664 0.05232956558213644 0.20660809414535664 0.05232956558213644 0.20660809414535664 0.9476704344178636 -0.20660809414535664
717.1279303842347 0.9435305438214882 -0.2148657912149575 0.05646945617851189 0.2148657912149575 0.05646945617851189 0.2148657912149575 0.9435305438214882 -0.2148657912149575
749.9667610955984 0.939067099445574 -0.22337544538375412 0.060932900554425955 0.22337544538375412 0.060932900554425955 0.22337544538375412 0.939067099445574 -0.22337544538375412
784.3093525124082 0.9342568334800749 -0.23213424035947125 0.06574316651992496 0.23213424035947125 0.06574316651992496 0.23213424035947125 0.9342568334800749 -0.23213424035947125
820.2245650724522 0.9290753756385518 -0.2411375440357842 0.07092462436144827 0.2411375440357842 0.07092462436144827 0.2411375440357842 0.9290753756385518 -0.2411375440357842
857.7844124811068 0.9234973391293914 -0.25037867877523995 0.07650266087060859 0.25037867877523995 0.07650266087060859 0.25037867877523995 0.9234973391293914 -0.25037867877523995
897.0642061062428 0.9174964383345569 -0.2598486837121715 0.08250356166544313 0.2598486837121715 0.08250356166544313 0.2598486837121715 0.9174964383345569 -0.2598486837121715
938.1427059852851 0.9110456418992636 -0.2695360723679487 0.0889543581007363 0.2695360723679487 0.0889543581007363 0.2695360723679487 0.9110456418992636 -0.2695360723679487
981.102278747212 0.9041173648682126 -0.2794265897228568 0.09588263513178731 0.2794265897228568 0.09588263513178731 0.2794265897228568 0.9041173648682126 -0.2794265897228568
1026.0290627661395 0.8966837032886606 -0.2895029738424966 0.10331629671133921 0.2895029738424966 0.10331629671133921 0.2895029738424966 0.8966837032886606 -0.2895029738424966
1073.0131408776467 0.8887167142943297 -0.2997447281962356 0.1112832857056703 0.2997447281962356 0.1112832857056703 0.2997447281962356 0.8887167142943297 -0.2997447281962356
1122.1487210041523 0.880188744041393 -0.31012791190225497 0.11981125595860705 0.31012791190225497 0.11981125595860705 0.31012791190225497 0.880188744041393 -0.31012791190225497
1173.5343250515148 0.8710728049439845 -0.32062495624424664 0.1289271950560156 0.32062495624424664 0.1289271950560156 0.32062495624424664 0.8710728049439845 -0.32062495624424664
1227.2729864556143 0.8613430024125016 -0.33120451686796604 0.13865699758749858 0.33120451686796604 0.13865699758749858 0.33120451686796604 0.8613430024125016 -0.33120451686796604
1283.4724567750195 0.850975009704466 -0.34183137200312463 0.14902499029553387 0.34183137200312463 0.14902499029553387 0.34183137200312463 0.850975009704466 -0.34183137200312463
1342.245421743976 0.8399465875425183 -0.3524663777718505 0.16005341245748173 0.3524663777718505 0.16005341245748173 0.3524663777718505 0.8399465875425183 -0.3524663777718505
1403.7097272189235 0.8282381428482726 -0.3630664920289182 0.17176185715172734 0.3630664920289182 0.17176185715172734 0.3630664920289182 0.8282381428482726 -0.3630664920289182
1467.9886154715937 0.8158333183257351 -0.3735848781111257 0.1841666816742649 0.3735848781111257 0.1841666816742649 0.3735848781111257 0.8158333183257351 -0.3735848781111257
1535.2109723024755 0.802719601782016 -0.3839710992314597 0.19728039821798404 0.3839710992314597 0.19728039821798404 0.3839710992314597 0.802719601782016 -0.3839710992314597
1605.5115854701387 0.7888889411161144 -0.39417141292443614 0.21111105888388562 0.39417141292443614 0.21111105888388562 0.39417141292443614 0.7888889411161144 -0.39417141292443614
1679.0314149545911 0.7743383480020285 -0.4041291728406247 0.22566165199797142 0.4041291728406247 0.22566165199797142 0.4041291728406247 0.7743383480020285 -0.4041291728406247
1755.9178755965756 0.759070470645172 -0.41378534224681734 0.24092952935482806 0.41378534224681734 0.24092952935482806 0.41378534224681734 0.759070470645172 -0.41378534224681734
1836.3251326795319 0.7430941138393011 -0.4230791198136164 0.2569058861606989 0.4230791198136164 0.2569058861606989 0.4230791198136164 0.7430941138393011 -0.4230791198136164
1920.4144110468878 0.726424683152554 -0.4319486737339485 0.2735753168474459 0.4319486737339485 0.2735753168474459 0.4319486737339485 0.726424683152554 -0.4319486737339485
2008.3543183745 0.7090845296819307 -0.4403319750650442 0.2909154703180692 0.4403319750650442 0.2909154703180692 0.4403319750650442 0.7090845296819307 -0.4403319750650442
2100.321183246434 0.6911031726637292 -0.4481677156605769 0.3088968273362708 0.4481677156605769 0.3088968273362708 0.4481677156605769 0.6911031726637292 -0.4481677156605769
2196.4994087119585 0.6725173794824995 -0.4553962904799352 0.32748262051750054 0.4553962904799352 0.32748262051750054 0.4553962904799352 0.6725173794824995 -0.4553962904799352
2297.0818420326846 0.6533710863627044 -0.4619608188173927 0.3466289136372956 0.4619608188173927 0.3466289136372956 0.4619608188173927 0.6533710863627044 -0.4619608188173927
2402.270161361206 0.633715148218102 -0.4678081745159261 0.366284851781898 0.4678081745159261 0.366284851781898 0.4678081745159261 0.633715148218102 -0.4678081745159261
2512.2752801266033 0.6136069126009553 -0.4728899919524218 0.3863930873990446 0.4728899919524218 0.3863930873990446 0.4728899919524218 0.6136069126009553 -0.4728899919524218
2627.3177699376165 0.593109620123037 -0.47716361289362647 0.40689037987696297 0.47716361289362647 0.40689037987696297 0.47716361289362647 0.593109620123037 -0.47716361289362647
2747.6283028514745 0.572291641671103 -0.4805929395237216 0.427708358328897 0.4805929395237216 0.427708358328897 0.4805929395237216 0.572291641671103 -0.4805929395237216
2873.4481138951564 0.5512255706713652 -0.4831491611955847 0.44877442932863476 0.4831491611955847 0.44877442932863476 0.4831491611955847 0.5512255706713652 -0.4831491611955847
3005.0294847665045 0.5299871959805357 -0.48481132674804395 0.4700128040194644 0.48481132674804395 0.4700128040194644 0.48481132674804395 0.5299871959805357 -0.48481132674804395
3142.6362496850466 0.5086543871148127 -0.4855667403631431 0.49134561288518747 0.4855667403631431 0.49134561288518747 0.4855667403631431 0.5086543871148127 -0.4855667403631431
3286.544324406816 0.48730592796626215 -0.48541116653290994 0.5126940720337377 0.48541116653290994 0.5126940720337377 0.48541116653290994 0.48730592796626215 -0.48541116653290994
3437.0422594639017 0.46602033752578775 -0.4843488382373814 0.5339796624742121 0.4843488382373814 0.5339796624742121 0.4843488382373814 0.46602033752578775 -0.4843488382373814
3594.431818738024 0.4448747162406271 -0.48239227128011974 0.5551252837593729 0.48239227128011974 0.5551252837593729 0.48239227128011974 0.4448747162406271 -0.48239227128011974
3759.0285845282415 0.4239436544940292 -0.4795618962282513 0.5760563455059707 0.4795618962282513 0.5760563455059707 0.4795618962282513 0.4239436544940292 -0.4795618962282513
3931.162590326006 0.4032982355208982 -0.47588552694517317 0.5967017644791017 0.47588552694517317 0.5967017644791017 0.47588552694517317 0.4032982355208982 -0.47588552694517317
4111.17898256636 0.3830051592577813 -0.4713976907753617 0.6169948407422189 0.4713976907753617 0.6169948407422189 0.4713976907753617 0.3830051592577813 -0.4713976907753617
4299.438712682125 0.363126006688495 -0.4661388496889208 0.6368739933115051 0.4661388496889208 0.6368739933115051 0.4661388496889208 0.363126006688495 -0.4661388496889208
4496.31926084876 0.34371665677301133 -0.46015454395141514 0.6562833432269886 0.46015454395141514 0.6562833432269886 0.46015454395141514 0.34371665677301133 -0.46015454395141514
4702.215392871039 0.32482686062037724 -0.45349449017519083 0.6751731393796229 0.45349449017519083 0.6751731393796229 0.45349449017519083 0.32482686062037724 -0.45349449017519083
4917.539951729213 0.3064999707064731 -0.44621166412541396 0.6935000292935269 0.44621166412541396 0.6935000292935269 0.44621166412541396 0.3064999707064731 -0.44621166412541396
5142.724685371758 0.2887728170535955 -0.4383613957229722 0.7112271829464045 0.4383613957229722 0.7112271829464045 0.4383613957229722 0.2887728170535955 -0.4383613957229722
5378.221112414543 0.27167571765045523 -0.43000049971411547 0.7283242823495448 0.43000049971411547 0.7283242823495448 0.43000049971411547 0.27167571765045523 -0.43000049971411547
5624.501427482224 0.25523260711976886 -0.4211864608980041 0.7447673928802311 0.4211864608980041 0.7447673928802311 0.4211864608980041 0.25523260711976886 -0.4211864608980041
5882.059448007167 0.23946126572052123 -0.41197668803144033 0.7605387342794788 0.41197668803144033 0.7605387342794788 0.41197668803144033 0.23946126572052123 -0.41197668803144033
6151.41160438433 0.22437363007610098 -0.4024278459181811 0.7756263699238991 0.4024278459181811 0.7756263699238991 0.4024278459181811 0.22437363007610098 -0.4024278459181811
6433.097975467465 0.20997616734341834 -0.392595271006839 0.7900238326565816 0.392595271006839 0.7900238326565816 0.392595271006839 0.20997616734341834 -0.392595271006839
6727.683371482931 0.19627029563699336 -0.38253247224045134 0.8037297043630065 0.38253247224045134 0.8037297043630065 0.38253247224045134 0.19627029563699336 -0.38253247224045134
7035.758466532445 0.18325283514454258 -0.3722907160052749 0.8167471648554575 0.3722907160052749 0.8167471648554575 0.3722907160052749 0.18325283514454258 -0.3722907160052749
7357.940982955574 0.17091647628613713 -0.3619186918216074 0.829083523713863 0.3619186918216074 0.829083523713863 0.3619186918216074 0.17091647628613713 -0.3619186918216074
7694.876929926739 0.15925025328577452 -0.3514622538527754 0.8407497467142254 0.3514622538527754 0.8407497467142254 0.3514622538527754 0.15925025328577452 -0.3514622538527754
8047.241898770236 0.14824001349810112 -0.3409642322905088 0.8517599865018988 0.3409642322905088 0.8517599865018988 0.3409642322905088 0.14824001349810112 -0.3409642322905088
8415.742417590522 0.1378688746685235 -0.3304643080998466 0.8621311253314764 0.3304643080998466 0.8621311253314764 0.3304643080998466 0.1378688746685235 -0.3304643080998466
8801.117367933934 0.1281176639496563 -0.3199989443682427 0.8718823360503439 0.3199989443682427 0.8718823360503439 0.3199989443682427 0.1281176639496563 -0.3199989443682427
9204.139466322391 0.11896533393275834 -0.3096013675065009 0.8810346660672418 0.3096013675065009 0.8810346660672418 0.3096013675065009 0.11896533393275834 -0.3096013675065009
9625.61681362972 0.1103893521850914 -0.29930159171580994 0.8896106478149086 0.29930159171580994 0.8896106478149086 0.29930159171580994 0.1103893521850914 -0.29930159171580994
10066.394515407255 0.10236606183245482 -0.2891264804070716 0.8976339381675452 0.2891264804070716 0.8976339381675452 0.2891264804070716 0.10236606183245482 -0.2891264804070716
10527.356376407623 0.09487101161572044 -0.27909983859560167 0.9051289883842796 0.27909983859560167 0.9051289883842796 0.27909983859560167 0.09487101161572044 -0.27909983859560167
11009.426672704432 0.08787925460609891 -0.2692425306706213 0.9121207453939012 0.2692425306706213 0.9121207453939012 0.2692425306706213 0.08787925460609891 -0.2692425306706213
11513.572004961125 0.08136561540761214 -0.2595726183400031 0.9186343845923881 0.2595726183400031 0.9186343845923881 0.2595726183400031 0.08136561540761214 -0.2595726183400031
12040.803236564994 0.07530492622323207 -0.25010551396841646 0.924695073776768 0.25010551396841646 0.924695073776768 0.25010551396841646 0.07530492622323207 -0.25010551396841646
12592.177520512549 0.06967223262481309 -0.2408541449567692 0.930327767375187 0.2408541449567692 0.930327767375187 0.2408541449567692 0.06967223262481309 -0.2408541449567692
13168.800419110281 0.0644429702536259 -0.2318291252490412 0.9355570297463741 0.2318291252490412 0.9355570297463741 0.2318291252490412 0.0644429702536259 -0.2318291252490412
