!Murata Part Number: GRM1555CYA103GE01
!These Parameters are Measured in Series Mode Connection
!       o--ll--o
!Port1            Port2
!       o------o
!Operation Temp=25[degC], DC Bias Voltage=0[V]
!Freq. Start=1[MHz] Stop=6[GHz], 401[Steps]
!Data Generated on Mar 5, 2019
# Hz S RI R 50
!Freq.(Hz) S11(Real) S11(Imag) S21(Real) S21(Imag) S12(Real) S12(Imag) S22(Real) S22(Imag)
1000000.0 0.025411780659359763 -0.15727529821448125 0.9745882193406402 0.15727529821448125 0.9745882193406402 0.15727529821448125 0.025411780659359763 -0.15727529821448125
1021987.0156634536 0.02435744120856839 -0.1540566805097251 0.9756425587914316 0.1540566805097251 0.9756425587914316 0.1540566805097251 0.02435744120856839 -0.1540566805097251
1044457.4601846923 0.023345853074536058 -0.15089709034653903 0.9766541469254639 0.15089709034653903 0.9766541469254639 0.15089709034653903 0.023345853074536058 -0.15089709034653903
1067421.9627215841 0.022375369127359778 -0.14779586786149526 0.9776246308726402 0.14779586786149526 0.9776246308726402 0.14779586786149526 0.022375369127359778 -0.14779586786149526
1090891.386135458 0.021444398722066417 -0.1447523321200841 0.9785556012779338 0.1447523321200841 0.9785556012779338 0.1447523321200841 0.021444398722066417 -0.1447523321200841
1114876.832129545 0.020551406343301975 -0.1417657834758223 0.9794485936566981 0.1417657834758223 0.9794485936566981 0.1417657834758223 0.020551406343301975 -0.1417657834758223
1139389.6465003989 0.019694910230147498 -0.13883550578893764 0.9803050897698522 0.13883550578893764 0.9803050897698522 0.13883550578893764 0.019694910230147498 -0.13883550578893764
1164441.4245047802 0.01887348098723609 -0.13596076851045333 0.9811265190127638 0.13596076851045333 0.9811265190127638 0.13596076851045333 0.01887348098723609 -0.13596076851045333
1190044.0163445412 0.018085740187766316 -0.13314082863744772 0.9819142598122337 0.13314082863744772 0.9819142598122337 0.13314082863744772 0.018085740187766316 -0.13314082863744772
1216209.5327721077 0.017330358973465076 -0.13037493254519045 0.9826696410265352 0.13037493254519045 0.9826696410265352 0.13037493254519045 0.017330358973465076 -0.13037493254519045
1242950.3508192098 0.016606056656046753 -0.12766231770175818 0.9833939433439532 0.12766231770175818 0.9833939433439532 0.12766231770175818 0.016606056656046753 -0.12766231770175818
1270279.119651567 0.015911599324244997 -0.12500221427062494 0.9840884006757551 0.12500221427062494 0.9840884006757551 0.12500221427062494 0.015911599324244997 -0.12500221427062494
1298208.7665523042 0.015245798460054997 -0.12239384660659058 0.984754201539945 0.12239384660659058 0.984754201539945 0.12239384660659058 0.015245798460054997 -0.12239384660659058
1326752.5030369225 0.0146075095674189 -0.11983643465027558 0.9853924904325813 0.11983643465027558 0.9853924904325813 0.11983643465027558 0.0146075095674189 -0.11983643465027558
1355923.8311027219 0.013995630816211234 -0.11732919522626063 0.9860043691837889 0.11732919522626063 0.9860043691837889 0.11732919522626063 0.013995630816211234 -0.11732919522626063
1385736.5496156274 0.013409101704034438 -0.11487134324979385 0.9865908982959656 0.11487134324979385 0.9865908982959656 0.11487134324979385 0.013409101704034438 -0.11487134324979385
1416204.7608374464 0.012846901738015108 -0.11246209284682665 0.9871530982619848 0.11246209284682665 0.9871530982619848 0.11246209284682665 0.012846901738015108 -0.11246209284682665
1447342.877096637 0.012308049138498027 -0.11010065839197586 0.9876919508615017 0.11010065839197586 0.9876919508615017 0.11010065839197586 0.012308049138498027 -0.11010065839197586
1479165.6276057488 0.011791599566264953 -0.10778625546883967 0.9882084004337348 0.10778625546883967 0.9882084004337348 0.10778625546883967 0.011791599566264953 -0.10778625546883967
1511688.0654287587 0.011296644874658666 -0.1055181017569276 0.9887033551253414 0.1055181017569276 0.9887033551253414 0.1055181017569276 0.011296644874658666 -0.1055181017569276
1544925.574601597 0.0108223118877672 -0.10329541784929588 0.9891776881122328 0.10329541784929588 0.9891776881122328 0.10329541784929588 0.0108223118877672 -0.10329541784929588
1578893.8774092323 0.010367761205616903 -0.10111742800480947 0.9896322387943831 0.10111742800480947 0.9896322387943831 0.10111742800480947 0.010367761205616903 -0.10111742800480947
1613609.04182276 0.009932186037136777 -0.09898336083878784 0.990067813962863 0.09898336083878784 0.990067813962863 0.09898336083878784 0.009932186037136777 -0.09898336083878784
1649087.4891000076 0.009514811061485936 -0.09689244995562578 0.990485188938514 0.09689244995562578 0.990485188938514 0.09689244995562578 0.009514811061485936 -0.09689244995562578
1685346.001553255 0.00911489131818277 -0.09484393452681969 0.990885108681817 0.09484393452681969 0.990885108681817 0.09484393452681969 0.00911489131818277 -0.09484393452681969
1722401.7304877453 0.008731711126335473 -0.09283705981767211 0.9912682888736647 0.09283705981767211 0.9912682888736647 0.09283705981767211 0.008731711126335473 -0.09283705981767211
1760272.2043147392 0.008364583033148514 -0.09087107766579203 0.9916354169668515 0.09087107766579203 0.9916354169668515 0.09087107766579203 0.008364583033148514 -0.09087107766579203
1798975.3368429495 0.008012846791767865 -0.08894524691436077 0.991987153208232 0.08894524691436077 0.991987153208232 0.08894524691436077 0.008012846791767865 -0.08894524691436077
1838529.4357522824 0.007675868368427022 -0.08705883380298486 0.992324131631573 0.08705883380298486 0.992324131631573 0.08705883380298486 0.007675868368427022 -0.08705883380298486
1878953.211253888 0.007353038978766698 -0.08521111231881782 0.9926469610212331 0.08521111231881782 0.9926469610212331 0.08521111231881782 0.007353038978766698 -0.08521111231881782
1920265.784940624 0.007043774153121716 -0.08340136451049683 0.9929562258468781 0.08340136451049683 0.9929562258468781 0.08340136451049683 0.007043774153121716 -0.08340136451049683
1962486.6988321077 0.00674751283049821 -0.08162888076730608 0.9932524871695019 0.08162888076730608 0.9932524871695019 0.08162888076730608 0.00674751283049821 -0.08162888076730608
2005635.9246186486 0.006463716480902978 -0.07989296006585535 0.9935362835190971 0.07989296006585535 0.9935362835190971 0.07989296006585535 0.006463716480902978 -0.07989296006585535
2049733.8731084245 0.006191868255632566 -0.07819291018643702 0.9938081317443673 0.07819291018643702 0.9938081317443673 0.07819291018643702 0.006191868255632566 -0.07819291018643702
2094801.403882371 0.005931472165083179 -0.07652804790110962 0.9940685278349168 0.07652804790110962 0.9940685278349168 0.07652804790110962 0.005931472165083179 -0.07652804790110962
2140859.835161357 0.005682052283602089 -0.07489769913544254 0.994317947716398 0.07489769913544254 0.994317947716398 0.07489769913544254 0.005682052283602089 -0.07489769913544254
2187930.9538903087 0.0054431519808670874 -0.07330119910574956 0.9945568480191327 0.07330119910574956 0.9945568480191327 0.07330119910574956 0.0054431519808670874 -0.07330119910574956
2236037.02604405 0.005214333179251591 -0.07173789243353519 0.9947856668207484 0.07173789243353519 0.9947856668207484 0.07173789243353519 0.005214333179251591 -0.07173789243353519
2285200.8071597433 0.004995175636609103 -0.07020713323877956 0.9950048243633909 0.07020713323877956 0.9950048243633909 0.07020713323877956 0.004995175636609103 -0.07020713323877956
2335445.553100901 0.004785276253891413 -0.06870828521359355 0.9952147237461086 0.06870828521359355 0.9952147237461086 0.06870828521359355 0.004785276253891413 -0.06870828521359355
2386795.031058074 0.004584248406999575 -0.0672407216776866 0.9954157515930004 0.0672407216776866 0.9954157515930004 0.0672407216776866 0.004584248406999575 -0.0672407216776866
2439273.530791401 0.004391721302255067 -0.06580382561700275 0.9956082786977449 0.06580382561700275 0.9956082786977449 0.06580382561700275 0.004391721302255067 -0.06580382561700275
2492905.876120359 0.004207339354870401 -0.06439698970680144 0.9957926606451297 0.06439698970680144 0.9957926606451297 0.06439698970680144 0.004207339354870401 -0.06439698970680144
2547717.4366661333 0.004030761589793066 -0.06301961632037974 0.9959692384102069 0.06301961632037974 0.9959692384102069 0.06301961632037974 0.004030761589793066 -0.06301961632037974
2603734.139852166 0.0038616610642943257 -0.06167111752456129 0.9961383389357057 0.06167111752456129 0.9961383389357057 0.06167111752456129 0.0038616610642943257 -0.06167111752456129
2660982.4831685643 0.003699724311674241 -0.06035091506300635 0.9963002756883257 0.06035091506300635 0.9963002756883257 0.06035091506300635 0.003699724311674241 -0.06035091506300635
2719489.5467061675 0.003544650805456336 -0.059058440328331095 0.9964553491945439 0.059058440328331095 0.9964553491945439 0.059058440328331095 0.003544650805456336 -0.059058440328331095
2779283.0059661944 0.003396152443449547 -0.05779313432396327 0.9966038475565504 0.05779313432396327 0.9966038475565504 0.05779313432396327 0.003396152443449547 -0.05779313432396327
2840391.144951544 0.003253953051060543 -0.05655444761659962 0.9967460469489396 0.05655444761659962 0.9967460469489396 0.05655444761659962 0.003253953051060543 -0.05655444761659962
2902842.8695459287 0.003117787903247048 -0.055341840280077 0.9968822120967532 0.055341840280077 0.9968822120967532 0.055341840280077 0.003117787903247048 -0.055341840280077
2966667.72118718 0.0029874032645110606 -0.054154781831413965 0.9970125967354889 0.054154781831413965 0.9970125967354889 0.054154781831413965 0.0029874032645110606 -0.054154781831413965
3031895.8908411846 0.0028625559463408357 -0.05299275115973208 0.9971374440536593 0.05299275115973208 0.9971374440536593 0.05299275115973208 0.0028625559463408357 -0.05299275115973208
3098558.233283071 0.0027430128815207544 -0.05185523644871606 0.9972569871184793 0.05185523644871606 0.9972569871184793 0.05185523644871606 0.0027430128815207544 -0.05185523644871606
3166686.281692389 0.0026285507147401103 -0.05074173509323136 0.99737144928526 0.05074173509323136 0.99737144928526 0.05074173509323136 0.0026285507147401103 -0.05074173509323136
3236312.2625692035 0.0025189554089435537 -0.04965175361067237 0.9974810445910566 0.04965175361067237 0.9974810445910566 0.04965175361067237 0.0025189554089435537 -0.04965175361067237
3307469.1109781396 0.002414021866878868 -0.048584807547577886 0.9975859781331212 0.048584807547577886 0.9975859781331212 0.048584807547577886 0.002414021866878868 -0.048584807547577886
3380190.486127605 0.0023135535673107833 -0.04754042138201257 0.9976864464326892 0.04754042138201257 0.9976864464326892 0.04754042138201257 0.0023135535673107833 -0.04754042138201257
3454510.787291549 0.0022173622153829264 -0.04651812842217834 0.9977826377846172 0.04651812842217834 0.9977826377846172 0.04651812842217834 0.0022173622153829264 -0.04651812842217834
3530465.1700812983 0.002125267406623695 -0.04551747070168789 0.9978747325933763 0.04551747070168789 0.9978747325933763 0.04551747070168789 0.002125267406623695 -0.04551747070168789
3608089.563075153 0.002037096304105686 -0.04453799887190177 0.9979629036958942 0.04453799887190177 0.9979629036958942 0.04453799887190177 0.002037096304105686 -0.04453799887190177
3687420.6848136308 0.0019526833282820782 -0.043579272091701725 0.9980473166717176 0.043579272091701725 0.9980473166717176 0.043579272091701725 0.0019526833282820782 -0.043579272091701725
3768496.0611683712 0.0018718698590373482 -0.042640857915046904 0.9981281301409627 0.042640857915046904 0.9981281301409627 0.042640857915046904 0.0018718698590373482 -0.042640857915046904
3851354.0430929437 0.001794503949503422 -0.041722332176633965 0.9982054960504966 0.041722332176633965 0.9982054960504966 0.041722332176633965 0.001794503949503422 -0.041722332176633965
3936033.8247639337 0.0017204400512061293 -0.04082327887595938 0.9982795599487941 0.04082327887595938 0.9982795599487941 0.04082327887595938 0.0017204400512061293 -0.04082327887595938
4022575.4621209023 0.0016495387501202778 -0.03994329006005906 0.9983504612498796 0.03994329006005906 0.9983504612498796 0.03994329006005906 0.0016495387501202778 -0.03994329006005906
4111019.891813979 0.0015816665132251948 -0.039081965705182596 0.9984183334867747 0.039081965705182596 0.9984183334867747 0.039081965705182596 0.0015816665132251948 -0.039081965705182596
4201408.950568062 0.0015166954451654544 -0.038238913597636315 0.9984833045548347 0.038238913597636315 0.9984833045548347 0.038238913597636315 0.0015166954451654544 -0.038238913597636315
4293785.394972777 0.0014545030546346488 -0.0374137492140156 0.9985454969453651 0.0374137492140156 0.9985454969453651 0.0374137492140156 0.0014545030546346488 -0.0374137492140156
4388192.921707552 0.0013949720301125092 -0.03660609560102708 0.9986050279698873 0.03660609560102708 0.9986050279698873 0.03660609560102708 0.0013949720301125092 -0.03660609560102708
4484676.188211391 0.0013379900245980949 -0.035815583255087165 0.9986620099754021 0.035815583255087165 0.9986620099754021 0.035815583255087165 0.0013379900245980949 -0.035815583255087165
4583280.833807113 0.0012834494489937726 -0.03504185000186802 0.9987165505510063 0.03504185000186802 0.9987165505510063 0.03504185000186802 0.0012834494489937726 -0.03504185000186802
4684053.501290036 0.0012312472738065198 -0.034284540875949114 0.9987687527261934 0.034284540875949114 0.9987687527261934 0.034284540875949114 0.0012312472738065198 -0.034284540875949114
4787041.858991356 0.0011812848388444326 -0.033543308000718246 0.9988187151611555 0.033543308000718246 0.9988187151611555 0.033543308000718246 0.0011812848388444326 -0.033543308000718246
4892294.623326608 0.001133467670597569 -0.032817810468655374 0.9988665323294024 0.032817810468655374 0.9988665323294024 0.032817810468655374 0.001133467670597569 -0.032817810468655374
4999861.581839919 0.0010877053070030467 -0.03210771422212036 0.9989122946929969 0.03210771422212036 0.9989122946929969 0.03210771422212036 0.0010877053070030467 -0.03210771422212036
5109793.616754934 0.0010439111293048574 -0.03141269193475513 0.9989560888706951 0.03141269193475513 0.9989560888706951 0.03141269193475513 0.0010439111293048574 -0.03141269193475513
5222142.729043541 0.0010020022007291894 -0.030732422893601414 0.9989979977992709 0.030732422893601414 0.9989979977992709 0.030732422893601414 0.0010020022007291894 -0.030732422893601414
5336962.063023812 9.618991117059509E-4 -0.030066592882025116 0.999038100888294 0.030066592882025116 0.999038100888294 0.030066592882025116 9.618991117059509E-4 -0.030066592882025116
5454305.931498774 9.235258313769528E-4 -0.02941489406353022 0.9990764741686229 0.02941489406353022 0.9990764741686229 0.02941489406353022 9.235258313769528E-4 -0.02941489406353022
5574229.841447907 8.868095651406445E-4 -0.028777024866536594 0.9991131904348594 0.028777024866536594 0.9991131904348594 0.028777024866536594 8.868095651406445E-4 -0.028777024866536594
5696790.520283512 8.516806179924577E-4 -0.028152689870188426 0.9991483193820075 0.028152689870188426 0.9991483193820075 0.028152689870188426 8.516806179924577E-4 -0.028152689870188426
5822045.942684401 8.180722634287994E-4 -0.027541599691252784 0.9991819277365712 0.027541599691252784 0.9991819277365712 0.027541599691252784 8.180722634287994E-4 -0.027541599691252784
5950055.3580195485 7.859206176914256E-4 -0.02694347087216131 0.9992140793823086 0.02694347087216131 0.9992140793823086 0.02694347087216131 7.859206176914256E-4 -0.02694347087216131
6080879.31837474 7.551645191373877E-4 -0.026358025770240826 0.9992448354808626 0.026358025770240826 0.9992448354808626 0.026358025770240826 7.551645191373877E-4 -0.026358025770240826
6214579.707195417 7.257454125280629E-4 -0.025784992448173952 0.9992742545874721 0.025784992448173952 0.9992742545874721 0.025784992448173952 7.257454125280629E-4 -0.025784992448173952
6351219.768559305 6.976072380387961E-4 -0.025224104565724315 0.9993023927619614 0.025224104565724315 0.9993023927619614 0.025224104565724315 6.976072380387961E-4 -0.025224104565724315
6490864.137092655 6.706963247985527E-4 -0.024675101272755982 0.9993293036752013 0.024675101272755982 0.9993293036752013 0.024675101272755982 6.706963247985527E-4 -0.024675101272755982
6633578.86854426 6.449612887766638E-4 -0.024137727103572374 0.9993550387112234 0.024137727103572374 0.9993550387112234 0.024137727103572374 6.449612887766638E-4 -0.024137727103572374
6779431.471031698 6.203529348412027E-4 -0.02361173187259461 0.9993796470651587 0.02361173187259461 0.9993796470651587 0.02361173187259461 6.203529348412027E-4 -0.02361173187259461
6928490.936974583 5.968241628208593E-4 -0.023096870571396134 0.9994031758371792 0.023096870571396134 0.9994031758371792 0.023096870571396134 5.968241628208593E-4 -0.023096870571396134
7080827.77572994 5.743298774092876E-4 -0.022592903267105578 0.9994256701225905 0.022592903267105578 0.9994256701225905 0.022592903267105578 5.743298774092876E-4 -0.022592903267105578
7236514.046945133 5.528269017578649E-4 -0.022099595002187354 0.9994471730982423 0.022099595002187354 0.9994471730982423 0.022099595002187354 5.528269017578649E-4 -0.022099595002187354
7395623.394644118 5.322738946095765E-4 -0.021616715695605315 0.9994677261053906 0.021616715695605315 0.9994677261053906 0.021616715695605315 5.322738946095765E-4 -0.021616715695605315
7558231.082063163 5.126312708333716E-4 -0.021144040045372892 0.9994873687291667 0.021144040045372892 0.9994873687291667 0.021144040045372892 5.126312708333716E-4 -0.021144040045372892
7724414.027252486 4.938611252247566E-4 -0.0206813474324898 0.9995061388747752 0.0206813474324898 0.9995061388747752 0.0206813474324898 4.938611252247566E-4 -0.0206813474324898
7894250.839460687 4.759271594446688E-4 -0.02022842182626338 0.9995240728405553 0.02022842182626338 0.9995240728405553 0.02022842182626338 4.759271594446688E-4 -0.02022842182626338
8067821.8563191425 4.587946119747822E-4 -0.019785051691011007 0.9995412053880253 0.019785051691011007 0.9995412053880253 0.019785051691011007 4.587946119747822E-4 -0.019785051691011007
8245209.181843984 4.424301909732719E-4 -0.019351029894137534 0.9995575698090265 0.019351029894137534 0.9995575698090265 0.019351029894137534 4.424301909732719E-4 -0.019351029894137534
8426496.72527364 4.2680200992080983E-4 -0.018926153615581098 0.9995731979900792 0.018926153615581098 0.9995731979900792 0.018926153615581098 4.2680200992080983E-4 -0.018926153615581098
8611770.240760274 4.118795259520704E-4 -0.018510224258618896 0.999588120474048 0.018510224258618896 0.999588120474048 0.018510224258618896 4.118795259520704E-4 -0.018510224258618896
8801117.367933933 3.9763348077333737E-4 -0.018103047362023974 0.9996023665192266 0.018103047362023974 0.9996023665192266 0.018103047362023974 3.9763348077333737E-4 -0.018103047362023974
8994627.673358591 3.840358440718909E-4 -0.01770443251356328 0.9996159641559281 0.01770443251356328 0.9996159641559281 0.01770443251356328 3.840358440718909E-4 -0.01770443251356328
9192392.692899661 3.710597593277223E-4 -0.01731419326482696 0.9996289402406723 0.01731419326482696 0.9996289402406723 0.01731419326482696 3.710597593277223E-4 -0.01731419326482696
9394505.975023063 3.5867949194272287E-4 -0.01693214704737847 0.9996413205080572 0.01693214704737847 0.9996413205080572 0.01693214704737847 3.5867949194272287E-4 -0.01693214704737847
9601063.125046303 3.4687037960687034E-4 -0.016558115090215583 0.9996531296203931 0.016558115090215583 0.9996531296203931 0.016558115090215583 3.4687037960687034E-4 -0.016558115090215583
9812161.850362506 3.356087848250131E-4 -0.016191922338532196 0.999664391215175 0.016191922338532196 0.999664391215175 0.016191922338532196 3.356087848250131E-4 -0.016191922338532196
1.0027902006658768E7 3.248720495316629E-4 -0.015833397373771516 0.9996751279504682 0.015833397373771516 0.9996751279504682 0.015833397373771516 3.248720495316629E-4 -0.015833397373771516
