! BLM15BD182SN1
# Hz S RI R 50
!Freq.(Hz) S11(Real) S11(Imag) S21(Real) S21(Imag) S12(Real) S12(Imag) S22(Real) S22(Imag)
1000000.0 0.02232754059054078 0.10804607992397897 0.9776724594094593 -0.10804607992397897 0.9776724594094593 -0.10804607992397897 0.02232754059054078 0.10804607992397897
1020217.5806586457 0.022828002028867755 0.11017122850769696 0.9771719979711321 -0.11017122850769696 0.9771719979711321 -0.11017122850769696 0.022828002028867755 0.11017122850769696
1040843.9118849806 0.023348322243662522 0.11233574499092706 0.9766516777563375 -0.11233574499092706 0.9766516777563375 -0.11233574499092706 0.023348322243662522 0.11233574499092706
1061887.2576265757 0.023889264930009247 0.11454021002943722 0.9761107350699909 -0.11454021002943722 0.9761107350699909 -0.11454021002943722 0.023889264930009247 0.11454021002943722
1083356.0489080292 0.024451621160413013 0.11678520345140718 0.975548378839587 -0.11678520345140718 0.975548378839587 -0.11678520345140718 0.024451621160413013 0.11678520345140718
1105258.8872088592 0.025036210202044887 0.11907130353946788 0.9749637897979552 -0.11907130353946788 0.9749637897979552 -0.11907130353946788 0.025036210202044887 0.11907130353946788
1127604.5479096894 0.025643880344368566 0.12139908626244471 0.9743561196556313 -0.12139908626244471 0.9743561196556313 -0.12139908626244471 0.025643880344368566 0.12139908626244471
1150401.9838081095 0.026275509735908354 0.12376912445431427 0.9737244902640916 -0.12376912445431427 0.9737244902640916 -0.12376912445431427 0.026275509735908354 0.12376912445431427
1173660.328705616 0.02693200722875775 0.12618198693780847 0.9730679927712423 -0.12618198693780847 0.9730679927712423 -0.12618198693780847 0.02693200722875775 0.12618198693780847
1197388.9010670746 0.027614313229257 0.1286382375900325 0.9723856867707431 -0.12863823759003254 0.9723856867707431 -0.12863823759003254 0.027614313229257 0.1286382375900325
1221597.2077541656 0.028323400553082426 0.13113843434739506 0.9716765994469175 -0.13113843434739506 0.9716765994469175 -0.13113843434739506 0.028323400553082426 0.13113843434739506
1246294.947834312 0.02906027528279307 0.13368312814708982 0.9709397247172068 -0.13368312814708982 0.9709397247172068 -0.13368312814708982 0.02906027528279307 0.13368312814708982
1271492.016466615 0.02982597762566814 0.13627286180231293 0.9701740223743318 -0.13627286180231293 0.9701740223743318 -0.13627286180231293 0.02982597762566814 0.13627286180231293
1297198.5088663532 0.030621582769441963 0.13890816880835 0.9693784172305578 -0.13890816880835 0.9693784172305578 -0.13890816880835 0.030621582769441963 0.13890816880835
1323424.7243496338 0.031448201733302 0.14158957207662995 0.968551798266698 -0.14158957207662995 0.968551798266698 -0.14158957207662995 0.031448201733302 0.14158957207662995
1350181.1704598186 0.03230698221125822 0.14431758259380956 0.9676930177887417 -0.14431758259380956 0.9676930177887417 -0.14431758259380956 0.03230698221125822 0.14431758259380956
1377478.5671773748 0.033199109404719485 0.14709269800293595 0.9668008905952805 -0.14709269800293595 0.9668008905952805 -0.14709269800293595 0.033199109404719485 0.14709269800293595
1405327.8512148394 0.03412580684082206 0.14991540110372273 0.965874193159178 -0.14991540110372273 0.965874193159178 -0.14991540110372273 0.03412580684082206 0.14991540110372273
1433740.1803986167 0.03508833717275051 0.1527861582689887 0.9649116628272496 -0.1527861582689887 0.9649116628272496 -0.1527861582689887 0.03508833717275051 0.1527861582689887
1462726.9381393674 0.03608800295796658 0.1557054177743246 0.9639119970420335 -0.1557054177743246 0.9639119970420335 -0.1557054177743246 0.03608800295796658 0.1557054177743246
1492299.737992774 0.03712614740992249 0.1586736080381006 0.9628738525900775 -0.1586736080381006 0.9628738525900775 -0.1586736080381006 0.03712614740992249 0.1586736080381006
1522470.428312519 0.03820415511847667 0.16169113576898422 0.9617958448815234 -0.16169113576898422 0.9617958448815234 -0.16169113576898422 0.03820415511847667 0.16169113576898422
1553251.0969973304 0.039323452733855124 0.16475838401822343 0.9606765472661449 -0.16475838401822343 0.9606765472661449 -0.16475838401822343 0.039323452733855124 0.16475838401822343
1584654.076334004 0.04048550960861139 0.16787571013406039 0.9595144903913887 -0.16787571013406039 0.9595144903913887 -0.16787571013406039 0.04048550960861139 0.16787571013406039
1616691.9479383389 0.041691838391628565 0.1710434436157743 0.9583081616083715 -0.1710434436157743 0.9583081616083715 -0.1710434436157743 0.041691838391628565 0.1710434436157743
1649377.5477959653 0.04294399556778377 0.17426188386501876 0.9570560044322164 -0.17426188386501879 0.9570560044322164 -0.17426188386501879 0.04294399556778377 0.17426188386501876
1682723.9714050898 0.044243581936458436 0.17753129783232255 0.9557564180635416 -0.17753129783232255 0.9557564180635416 -0.17753129783232255 0.044243581936458436 0.17753129783232255
1716744.5790232092 0.04559224302162264 0.18085191755685068 0.9544077569783774 -0.1808519175568507 0.9544077569783774 -0.1808519175568507 0.04559224302162264 0.18085191755685068
1751453.001019904 0.04699166940576049 0.18422393759780606 0.9530083305942395 -0.18422393759780606 0.9530083305942395 -0.18422393759780606 0.04699166940576049 0.18422393759780606
1786863.143337851 0.04844359697942629 0.1876475123561626 0.9515564030205738 -0.1876475123561626 0.9515564030205738 -0.1876475123561626 0.04844359697942629 0.1876475123561626
1822989.1930642454 0.0499498070977386 0.19112275328578743 0.9500501929022616 -0.1911227532857874 0.9500501929022616 -0.1911227532857874 0.0499498070977386 0.19112275328578743
1859845.6241148617 0.05151212663463086 0.1946497259934235 0.9484878733653692 -0.1946497259934235 0.9484878733653692 -0.1946497259934235 0.05151212663463086 0.1946497259934235
1897447.2030330333 0.05313242792518342 0.19822844722746602 0.9468675720748165 -0.19822844722746602 0.9468675720748165 -0.19822844722746602 0.05313242792518342 0.19822844722746602
1935808.994905876 0.054812628585871694 0.20185888175599262 0.9451873714141283 -0.20185888175599262 0.9451873714141283 -0.20185888175599262 0.054812628585871694 0.20185888175599262
1974946.3694001175 0.056554691202076485 0.2055409391350857 0.9434453087979234 -0.20554093913508573 0.9434453087979234 -0.20554093913508573 0.056554691202076485 0.2055409391350857
2014875.0069199642 0.058360622871725325 0.20927447036913524 0.9416393771282747 -0.20927447036913524 0.9416393771282747 -0.20927447036913524 0.058360622871725325 0.20927447036913524
2055610.904889458 0.060232474593467485 0.21305926446551737 0.9397675254065325 -0.21305926446551737 0.9397675254065325 -0.21305926446551737 0.060232474593467485 0.21305926446551737
2097170.3841618528 0.06217234048734197 0.21689504488683445 0.9378276595126579 -0.21689504488683442 0.9378276595126579 -0.21689504488683442 0.06217234048734197 0.21689504488683445
2139570.0955585684 0.06418235683547681 0.220781465904749 0.9358176431645232 -0.220781465904749 0.9358176431645232 -0.220781465904749 0.06418235683547681 0.220781465904749
2182827.0265403506 0.06626470092997318 0.22471810886038496 0.9337352990700268 -0.22471810886038496 0.9337352990700268 -0.22471810886038496 0.06626470092997318 0.22471810886038496
2226958.508013302 0.06842158971477988 0.22870447833727028 0.9315784102852203 -0.22870447833727028 0.9315784102852203 -0.22870447833727028 0.06842158971477988 0.22870447833727028
2271982.2212725184 0.07065527820806959 0.23273999825389277 0.9293447217919304 -0.23273999825389283 0.9293447217919304 -0.23273999825389283 0.07065527820806959 0.23273999825389277
2317916.205086105 0.0729680576913854 0.23682400788410413 0.9270319423086143 -0.23682400788410407 0.9270319423086143 -0.23682400788410407 0.0729680576913854 0.23682400788410413
2364778.8629224156 0.0753622536516589 0.2409557578148653 0.9246377463483413 -0.2409557578148653 0.9246377463483413 -0.2409557578148653 0.0753622536516589 0.2409557578148653
2412588.9703234104 0.07784022346210447 0.2451344058521559 0.9221597765378955 -0.2451344058521559 0.9221597765378955 -0.2451344058521559 0.07784022346210447 0.2451344058521559
2461365.682427083 0.0804043537879956 0.24935901288728807 0.9195956462120043 -0.24935901288728812 0.9195956462120043 -0.24935901288728812 0.0804043537879956 0.24935901288728807
2511128.5416419753 0.08305705770342263 0.25362853873735186 0.9169429422965775 -0.25362853873735186 0.9169429422965775 -0.25362853873735186 0.08305705770342263 0.25362853873735186
2561897.48547685 0.08580077150534897 0.25794183797509157 0.914199228494651 -0.25794183797509157 0.914199228494651 -0.25794183797509157 0.08580077150534897 0.25794183797509157
2613692.85452866 0.08863795121161794 0.2622976557651429 0.9113620487883822 -0.2622976557651429 0.9113620487883822 -0.2622976557651429 0.08863795121161794 0.2622976557651429
2666535.4006320196 0.09157106873004849 0.2666946237252657 0.9084289312699516 -0.2666946237252657 0.9084289312699516 -0.2666946237252657 0.09157106873004849 0.2666946237252657
2720446.295173432 0.09460260768638602 0.27113125583295417 0.9053973923136139 -0.2711312558329541 0.9053973923136139 -0.2711312558329541 0.09460260768638602 0.27113125583295417
2775447.137573615 0.09773505889968508 0.27560594439961467 0.9022649411003149 -0.27560594439961467 0.9022649411003149 -0.27560594439961467 0.09773505889968508 0.27560594439961467
2831559.963941318 0.10097091549468117 0.28011695613632837 0.8990290845053189 -0.28011695613632837 0.8990290845053189 -0.28011695613632837 0.10097091549468117 0.28011695613632837
2888807.255902094 0.10431266764189252 0.2846624283370708 0.8956873323581076 -0.2846624283370708 0.8956873323581076 -0.2846624283370708 0.10431266764189252 0.2846624283370708
2947211.9496055758 0.10776279691758524 0.28924036520712076 0.8922372030824147 -0.28924036520712076 0.8922372030824147 -0.28924036520712076 0.10776279691758524 0.28924036520712076
3006797.4449148513 0.11132377027734339 0.293848634366226 0.8886762297226568 -0.293848634366226 0.8886762297226568 -0.293848634366226 0.11132377027734339 0.293848634366226
3067587.6147816274 0.1149980336388374 0.29848496355790555 0.8850019663611627 -0.29848496355790555 0.8850019663611627 -0.29848496355790555 0.1149980336388374 0.29848496355790555
3129606.8148109377 0.11878800507146742 0.30314693759801126 0.8812119949285325 -0.30314693759801126 0.8812119949285325 -0.30314693759801126 0.11878800507146742 0.30314693759801126
3192879.893019226 0.12269606759290459 0.3078319955973354 0.8773039324070956 -0.3078319955973354 0.8773039324070956 -0.3078319955973354 0.12269606759290459 0.3078319955973354
3257432.1997897103 0.12672456157514536 0.3125374284945955 0.8732754384248548 -0.3125374284945955 0.8732754384248548 -0.3125374284945955 0.12672456157514536 0.3125374284945955
3323289.598029029 0.13087577676556164 0.317260376937539 0.8691242232344384 -0.31726037693753895 0.8691242232344384 -0.31726037693753895 0.13087577676556164 0.317260376937539
3390478.4735292196 0.13515194393154462 0.3219978295511288 0.8648480560684554 -0.3219978295511288 0.8648480560684554 -0.3219978295511288 0.13515194393154462 0.3219978295511288
3459025.745539199 0.1395552261407257 0.32674662163279444 0.8604447738592742 -0.32674662163279444 0.8604447738592742 -0.32674662163279444 0.1395552261407257 0.32674662163279444
3528958.8775499705 0.14408770969239015 0.33150343431549234 0.8559122903076098 -0.3315034343154924 0.8559122903076098 -0.3315034343154924 0.14408770969239015 0.33150343431549234
3600305.8882978815 0.1487513947195745 0.3362647942398054 0.8512486052804256 -0.3362647942398054 0.8512486052804256 -0.3362647942398054 0.1487513947195745 0.3362647942398054
3673095.3629903416 0.15354818548543925 0.3410270737764594 0.8464518145145608 -0.3410270737764594 0.8464518145145608 -0.3410270737764594 0.15354818548543925 0.3410270737764594
3747356.4647584967 0.1584798804018125 0.34578649184042665 0.8415201195981874 -0.3457864918404266 0.8415201195981874 -0.3457864918404266 0.1584798804018125 0.34578649184042665
3823118.9463414503 0.16354816180228193 0.3505391153371637 0.836451838197718 -0.3505391153371637 0.836451838197718 -0.3505391153371637 0.16354816180228193 0.3505391153371637
3900413.1620067055 0.16875458550683767 0.35528086128047426 0.8312454144931624 -0.35528086128047426 0.8312454144931624 -0.35528086128047426 0.16875458550683767 0.35528086128047426
3979270.0797116193 0.17410057021980083 0.36000749961994155 0.8258994297801993 -0.3600074996199415 0.8258994297801993 -0.3600074996199415 0.17410057021980083 0.36000749961994155
4059721.293510725 0.17958738680756134 0.3647146568138191 0.8204126131924387 -0.3647146568138191 0.8204126131924387 -0.3647146568138191 0.17958738680756134 0.3647146568138191
4141799.0362139 0.1852161475074478 0.36939782018066286 0.8147838524925523 -0.36939782018066286 0.8147838524925523 -0.36939782018066286 0.1852161475074478 0.36939782018066286
4225536.192300457 0.19098779512380018 0.37405234305981194 0.8090122048761996 -0.3740523430598119 0.8090122048761996 -0.3740523430598119 0.19098779512380018 0.37405234305981194
4310966.311094318 0.1969030922719477 0.37867345080705367 0.8030969077280523 -0.3786734508070537 0.8030969077280523 -0.3786734508070537 0.1969030922719477 0.37867345080705367
4398123.620205573 0.20296261073524408 0.38325624764743244 0.797037389264756 -0.3832562476474325 0.797037389264756 -0.3832562476474325 0.20296261073524408 0.38325624764743244
4487043.0392437745 0.2091667210044983 0.38779572440216475 0.7908332789955018 -0.38779572440216475 0.7908332789955018 -0.38779572440216475 0.2091667210044983 0.38779572440216475
4577760.193808502 0.21551558207298926 0.39228676710102617 0.7844844179270106 -0.39228676710102617 0.7844844179270106 -0.39228676710102617 0.21551558207298926 0.39228676710102617
4670311.429762763 0.22200913156367713 0.3967241664853644 0.7779908684363229 -0.3967241664853644 0.7779908684363229 -0.3967241664853644 0.22200913156367713 0.3967241664853644
4764733.827794987 0.2286470762681415 0.4011026284001198 0.7713529237318585 -0.4011026284001198 0.7713529237318585 -0.4011026284001198 0.2286470762681415 0.4011026284001198
4861065.218275411 0.23542888317910515 0.4054167850659123 0.7645711168208946 -0.4054167850659123 0.7645711168208946 -0.4054167850659123 0.23542888317910515 0.4054167850659123
4959344.196412832 0.24235377110004142 0.4096612072144398 0.7576462288999586 -0.4096612072144398 0.7576462288999586 -0.4096612072144398 0.24235377110004142 0.4096612072144398
5059610.137717796 0.24942070291625462 0.41383041706218976 0.7505792970837454 -0.4138304170621898 0.7505792970837454 -0.4138304170621898 0.24942070291625462 0.41383041706218976
5161903.213778406 0.2566283786118589 0.417918902088852 0.7433716213881413 -0.4179189020888521 0.7433716213881413 -0.4179189020888521 0.2566283786118589 0.417918902088852
5266264.4083550945 0.2639752291162248 0.42192112957795247 0.7360247708837752 -0.42192112957795247 0.7360247708837752 -0.42192112957795247 0.2639752291162248 0.42192112957795247
5372735.53380077 0.27145941106160676 0.4258315618681584 0.7285405889383934 -0.42583156186815835 0.7285405889383934 -0.42583156186815835 0.27145941106160676 0.4258315618681584
5481359.247812959 0.27907880253080686 0.42964467225459796 0.7209211974691931 -0.42964467225459796 0.7209211974691931 -0.42964467225459796 0.27907880253080686 0.42964467225459796
5592179.070524632 0.28683099986978156 0.4333549614704675 0.7131690001302183 -0.4333549614704675 0.7131690001302183 -0.4333549614704675 0.28683099986978156 0.4333549614704675
5705239.401940555 0.294713315635076 0.4369569746703296 0.705286684364924 -0.4369569746703296 0.705286684364924 -0.4369569746703296 0.294713315635076 0.4369569746703296
5820585.5397261735 0.30272277773983075 0.4404453188279592 0.6972772222601692 -0.4404453188279592 0.6972772222601692 -0.4404453188279592 0.30272277773983075 0.4404453188279592
5938263.697356135 0.310856129854883 0.4438146804535123 0.689143870145117 -0.4438146804535123 0.689143870145117 -0.4438146804535123 0.310856129854883 0.4438146804535123
6058321.022629741 0.31910983311320157 0.4470598435273412 0.6808901668867984 -0.4470598435273413 0.6808901668867984 -0.4470598435273413 0.31910983311320157 0.4470598435273412
6180805.616560728 0.3274800691565916 0.450175707541077 0.6725199308434084 -0.450175707541077 0.6725199308434084 -0.450175707541077 0.3274800691565916 0.450175707541077
6305766.552648956 0.33596274455337033 0.4531573055308151 0.6640372554466296 -0.4531573055308151 0.6640372554466296 -0.4531573055308151 0.33596274455337033 0.4531573055308151
6433253.896541728 0.3445534966046256 0.45599982198249817 0.6554465033953742 -0.45599982198249817 0.6554465033953742 -0.45599982198249817 0.3445534966046256 0.45599982198249817
6563318.726092606 0.35324770054485466 0.4586986104860125 0.6467522994551453 -0.4586986104860125 0.6467522994551453 -0.4586986104860125 0.35324770054485466 0.4586986104860125
6696013.151825785 0.3620404781303596 0.4612492110122369 0.6379595218696403 -0.4612492110122369 0.6379595218696403 -0.4612492110122369 0.3620404781303596 0.4612492110122369
6831390.3378141755 0.3709267075959107 0.4636473666863774 0.6290732924040892 -0.46364736668637735 0.6290732924040892 -0.46364736668637735 0.3709267075959107 0.4636473666863774
6969504.522979628 0.3799010349470486 0.4658890399314862 0.6200989650529515 -0.46588903993148617 0.6200989650529515 -0.46588903993148617 0.3799010349470486 0.4658890399314862
7110411.042823766 0.3889578865421587 0.4679704278581473 0.6110421134578412 -0.46797042785814724 0.6110421134578412 -0.46797042785814724 0.3889578865421587 0.4679704278581473
7254166.351598182 0.39809148290530927 0.46988797677994254 0.6019085170946908 -0.46988797677994254 0.6019085170946908 -0.46988797677994254 0.39809148290530927 0.46988797677994254
7400828.044922853 0.40729585369800414 0.47163839573950345 0.5927041463019959 -0.47163839573950356 0.5927041463019959 -0.47163839573950356 0.40729585369800414 0.47163839573950345
7550454.882861849 0.41656485376566543 0.47321866893667996 0.5834351462343346 -0.47321866893667985 0.5834351462343346 -0.47321866893667985 0.41656485376566543 0.47321866893667996
7703106.813465575 0.4258921801630165 0.4746260669585515 0.5741078198369836 -0.47462606695855153 0.5741078198369836 -0.47462606695855153 0.4258921801630165 0.4746260669585515
7858844.9967889795 0.4352713900518001 0.4758581567206216 0.5647286099481998 -0.4758581567206216 0.5647286099481998 -0.4758581567206216 0.4352713900518001 0.4758581567206216
8017731.829395356 0.4446959193546137 0.47691281003941766 0.5553040806453864 -0.47691281003941777 0.5553040806453864 -0.47691281003941777 0.4446959193546137 0.47691281003941766
8179830.96935555 0.4541591020402375 0.4777882107687739 0.5458408979597624 -0.47778821076877404 0.5458408979597624 -0.47778821076877404 0.4541591020402375 0.4777882107687739
8345207.361752584 0.4636541899088439 0.4784828604451118 0.5363458100911561 -0.4784828604451118 0.5363458100911561 -0.4784828604451118 0.4636541899088439 0.4784828604451118
8513927.264701942 0.473174372740014 0.4789955824008882 0.526825627259986 -0.4789955824008882 0.526825627259986 -0.4789955824008882 0.473174372740014 0.4789955824008882
8686058.275897898 0.4827127986626718 0.479325524319842 0.5172872013373282 -0.479325524319842 0.5172872013373282 -0.479325524319842 0.4827127986626718 0.479325524319842
8861669.359696563 0.49226259460394417 0.4794721592225326 0.5077374053960559 -0.4794721592225326 0.5077374053960559 -0.4794721592225326 0.49226259460394417 0.4794721592225326
9040830.87474648 0.5018168866736041 0.4794352848856933 0.4981831133263958 -0.4794352848856933 0.4981831133263958 -0.4794352848856933 0.5018168866736041 0.4794352848856933
9223614.602177842 0.511368820342194 0.4792150217138978 0.48863117965780595 -0.4792150217138978 0.48863117965780595 -0.4792150217138978 0.511368820342194 0.4792150217138978
