!Murata Part Number: LQW15DN150M00
!These Parameters are Measured in Series Mode Connection
!       o--[Z]--o
!Port1              Port2
!       o-------o
!
!Freq. Start=50[MHz] Stop=20[GHz], 401[Steps]
# Hz S RI R 50
!Freq.(Hz) S11(Real) S11(Imag) S21(Real) S21(Imag) S12(Real) S12(Imag) S22(Real) S22(Imag)
5.0E7 0.9963497741702804 -0.007104613611546671 0.0036502258297195765 0.007104613611546628 0.0036502258297195765 0.007104613611546628 0.9963497741702804 -0.007104613611546671
5.0754570186123446E7 0.9963456823259491 -0.00793529954719229 0.0036543176740508852 0.007935299547192288 0.0036543176740508852 0.007935299547192288 0.9963456823259491 -0.00793529954719229
5.152052789556263E7 0.9963395982094152 -0.008768002472700313 0.003660401790584824 0.0087680024727003 0.003660401790584824 0.0087680024727003 0.9963395982094152 -0.008768002472700313
5.229804498202928E7 0.9963315105749141 -0.009602896897752284 0.0036684894250859383 0.009602896897752277 0.0036684894250859383 0.009602896897752277 0.9963315105749141 -0.009602896897752284
5.308729589274893E7 0.9963214066585903 -0.010440158110654546 0.0036785933414097646 0.010440158110654562 0.0036785933414097646 0.010440158110654562 0.9963214066585903 -0.010440158110654546
5.388845770760058E7 0.9963092721532297 -0.011279962203646214 0.0036907278467703053 0.011279962203646228 0.0036907278467703053 0.011279962203646228 0.9963092721532297 -0.011279962203646214
5.470171017884717E7 0.9962950911821169 -0.012122486098319627 0.00370490881788301 0.012122486098319642 0.00370490881788301 0.012122486098319642 0.9962950911821169 -0.012122486098319627
5.5527235771465644E7 0.9962788462719777 -0.01296790757116242 0.003721153728022462 0.012967907571162405 0.003721153728022462 0.012967907571162405 0.9962788462719777 -0.01296790757116242
5.6365219704085544E7 0.9962605183249647 -0.013816405279228896 0.0037394816750352107 0.013816405279228903 0.0037394816750352107 0.013816405279228903 0.9962605183249647 -0.013816405279228896
5.721584999054556E7 0.9962400865896508 -0.014668158785947296 0.0037599134103492703 0.014668158785947284 0.0037599134103492703 0.014668158785947284 0.9962400865896508 -0.014668158785947296
5.807931748207712E7 0.9962175286309771 -0.015523348587066863 0.0037824713690228816 0.015523348587066875 0.0037824713690228816 0.015523348587066875 0.9962175286309771 -0.015523348587066863
5.8955815910124585E7 0.9961928202991236 -0.016382156136749076 0.0038071797008763096 0.016382156136749062 0.0038071797008763096 0.016382156136749062 0.9961928202991236 -0.016382156136749076
5.984554192981184E7 0.9961659356972485 -0.017244763873803987 0.0038340643027514228 0.01724476387380399 0.0038340643027514228 0.01724476387380399 0.9961659356972485 -0.017244763873803987
6.074869516406457E7 0.9961368471480552 -0.018111355248072815 0.003863152851944968 0.018111355248072822 0.003863152851944968 0.018111355248072822 0.9961368471480552 -0.018111355248072815
6.166547824839868E7 0.9961055251591374 -0.01898211474695561 0.003894474840862517 0.018982114746955582 0.003894474840862517 0.018982114746955582 0.9961055251591374 -0.01898211474695561
6.2596096876384385E7 0.9960719383870589 -0.0198572279220814 0.003928061612941113 0.019857227922081392 0.003928061612941113 0.019857227922081392 0.9960719383870589 -0.0198572279220814
6.354075984579668E7 0.9960360536001102 -0.02073688141611848 0.003963946399889852 0.02073688141611847 0.003963946399889852 0.02073688141611847 0.9960360536001102 -0.02073688141611848
6.449967910546205E7 0.9959978356397013 -0.021621262989718164 0.004002164360298651 0.021621262989718174 0.004002164360298651 0.021621262989718174 0.9959978356397013 -0.021621262989718164
6.547306980281226E7 0.9959572473803332 -0.022510561548587407 0.0040427526196667556 0.022510561548587393 0.0040427526196667556 0.022510561548587393 0.9959572473803332 -0.022510561548587407
6.646115033215589E7 0.9959142496880964 -0.0234049671706818 0.004085750311903612 0.023404967170681804 0.004085750311903612 0.023404967170681804 0.9959142496880964 -0.0234049671706818
6.746414238367817E7 0.995868801377644 -0.02430467113351082 0.004131198622356044 0.02430467113351084 0.004131198622356044 0.02430467113351084 0.995868801377644 -0.02430467113351082
6.848227099318038E7 0.9958208591675831 -0.025209865941544635 0.0041791408324169015 0.025209865941544646 0.0041791408324169015 0.025209865941544646 0.9958208591675831 -0.025209865941544635
6.951576459256999E7 0.9957703776342284 -0.02612074535371147 0.004229622365771714 0.026120745353711478 0.004229622365771714 0.026120745353711478 0.9957703776342284 -0.02612074535371147
7.056485506111258E7 0.9957173091636587 -0.027037504410972926 0.004282690836341245 0.027037504410972926 0.004282690836341245 0.027037504410972926 0.9957173091636587 -0.027037504410972926
7.162977777745734E7 0.995661603902021 -0.02796033946396286 0.004338396097979203 0.027960339463962865 0.004338396097979203 0.027960339463962865 0.995661603902021 -0.02796033946396286
7.271077167244768E7 0.995603209704014 -0.028889448200674957 0.004396790295985984 0.028889448200674957 0.004396790295985984 0.028889448200674957 0.995603209704014 -0.028889448200674957
7.380807928272885E7 0.9955420720794992 -0.02982502967418177 0.0044579279205007715 0.029825029674181765 0.0044579279205007715 0.029825029674181765 0.9955420720794992 -0.02982502967418177
7.492194680516452E7 0.995478134138164 -0.03076728433036768 0.004521865861835942 0.030767284330367673 0.004521865861835942 0.030767284330367673 0.995478134138164 -0.03076728433036768
7.60526241520746E7 0.9954113365321804 -0.03171641403565594 0.004588663467819511 0.03171641403565596 0.004588663467819511 0.03171641403565596 0.9954113365321804 -0.03171641403565594
7.720036500730675E7 0.9953416173967871 -0.03267262210470909 0.004658382603212995 0.03267262210470908 0.004658382603212995 0.03267262210470908 0.9953416173967871 -0.03267262210470909
7.836542688315398E7 0.995268912288726 -0.03363611332807978 0.0047310877112739964 0.03363611332807976 0.0047310877112739964 0.03363611332807976 0.995268912288726 -0.03363611332807978
7.954807117813127E7 0.9951931541224652 -0.03460709399978907 0.004806845877534738 0.03460709399978907 0.004806845877534738 0.03460709399978907 0.9951931541224652 -0.03460709399978907
8.074856323562416E7 0.9951142731041303 -0.035585771944805514 0.004885726895869761 0.035585771944805514 0.004885726895869761 0.035585771944805514 0.9951142731041303 -0.035585771944805514
8.196717240342227E7 0.995032196663072 -0.0365723565463985 0.004967803336928138 0.0365723565463985 0.004967803336928138 0.0365723565463985 0.995032196663072 -0.0365723565463985
8.320417209415154E7 0.9949468493809923 -0.03756705877333668 0.005053150619007738 0.037567058773336666 0.005053150619007738 0.037567058773336666 0.9949468493809923 -0.03756705877333668
8.445983984661816E7 0.9948581529185485 -0.03857009120690082 0.0051418470814514235 0.03857009120690082 0.0051418470814514235 0.03857009120690082 0.9948581529185485 -0.03857009120690082
8.573445738807854E7 0.9947660259393526 -0.039581668067678745 0.005233974060647415 0.03958166806767874 0.005233974060647415 0.03958166806767874 0.9947660259393526 -0.039581668067678745
8.702831069744885E7 0.9946703840312814 -0.0406020052421072 0.005329615968718586 0.040602005242107185 0.005329615968718586 0.040602005242107185 0.9946703840312814 -0.0406020052421072
8.834169006946853E7 0.994571139625012 -0.04163132030872482 0.005428860374988139 0.041631320308724844 0.005428860374988139 0.041631320308724844 0.994571139625012 -0.04163132030872482
8.96748901798321E7 0.9944682019096882 -0.04266983256409718 0.005531798090311783 0.04266983256409718 0.005531798090311783 0.04266983256409718 0.9944682019096882 -0.04266983256409718
9.1028210151304E7 0.9943614767456306 -0.04371776304837286 0.005638523254369432 0.04371776304837287 0.005638523254369432 0.04371776304837287 0.9943614767456306 -0.04371776304837286
9.240195362083109E7 0.9942508665739876 -0.044775334570427566 0.0057491334260124476 0.044775334570427566 0.0057491334260124476 0.044775334570427566 0.9942508665739876 -0.044775334570427566
9.379642880766791E7 0.9941362703232346 -0.04584277173255033 0.005863729676765527 0.04584277173255033 0.005863729676765527 0.04584277173255033 0.9941362703232346 -0.04584277173255033
9.521194858253023E7 0.9940175833124144 -0.04692030095462344 0.005982416687585705 0.046920300954623434 0.005982416687585705 0.046920300954623434 0.9940175833124144 -0.04692030095462344
9.664883053779216E7 0.9938946971510157 -0.048008150497745296 0.006105302848984208 0.0480081504977453 0.006105302848984208 0.0480081504977453 0.9938946971510157 -0.048008150497745296
9.810739705874248E7 0.9937674996353795 -0.049106550487241565 0.0062325003646204885 0.049106550487241565 0.0062325003646204885 0.049106550487241565 0.9937674996353795 -0.049106550487241565
9.958797539591652E7 0.9936358746415184 -0.050215732935008306 0.006364125358481626 0.050215732935008306 0.006364125358481626 0.050215732935008306 0.9936358746415184 -0.050215732935008306
1.0109089773851961E8 0.9934997020142361 -0.05133593176112644 0.006500297985763883 0.051335931761126455 0.006500297985763883 0.051335931761126455 0.9934997020142361 -0.05133593176112644
1.0261650128895843E8 0.9933588574524226 -0.05246738281468381 0.006641142547577416 0.052467382814683806 0.006641142547577416 0.052467382814683806 0.9933588574524226 -0.05246738281468381
1.0416512833849736E8 0.9932132123904007 -0.05361032389373775 0.0067867876095993795 0.053610323893737745 0.0067867876095993795 0.053610323893737745 0.9932132123904007 -0.05361032389373775
1.0573712634405641E8 0.9930626338751952 -0.05476499476434701 0.006937366124804849 0.054764994764347014 0.006937366124804849 0.054764994764347014 0.9930626338751952 -0.05476499476434701
1.0733284800616828E8 0.9929069844395902 -0.055931637178598385 0.0070930155604098395 0.055931637178598385 0.0070930155604098395 0.055931637178598385 0.9929069844395902 -0.055931637178598385
1.0895265134811176E8 0.9927461219708348 -0.05711049489154762 0.007253878029165206 0.05711049489154762 0.007253878029165206 0.05711049489154762 0.9927461219708348 -0.05711049489154762
1.1059689979623953E8 0.9925798995748546 -0.05830181367699221 0.007420100425145401 0.05830181367699222 0.007420100425145401 0.05830181367699222 0.9925798995748546 -0.05830181367699221
1.1226596226151802E8 0.9924081654358188 -0.05950584134198664 0.007591834564181204 0.05950584134198664 0.007591834564181204 0.05950584134198664 0.9924081654358188 -0.05950584134198664
1.1396021322229806E8 0.9922307626709093 -0.0607228277400065 0.0077692373290908535 0.06072282774000649 0.0077692373290908535 0.06072282774000649 0.9922307626709093 -0.0607228277400065
1.1568003280833441E8 0.9920475291801303 -0.061953024782662854 0.007952470819869882 0.061953024782662854 0.007952470819869882 0.061953024782662854 0.9920475291801303 -0.061953024782662854
1.1742580688607343E8 0.9918582974909942 -0.06319668644986233 0.008141702509005692 0.06319668644986232 0.008141702509005692 0.06319668644986232 0.9918582974909942 -0.06319668644986233
1.1919792714522783E8 0.9916628945979109 -0.06445406879830197 0.008337105402089214 0.064454068798302 0.008337105402089214 0.064454068798302 0.9916628945979109 -0.06445406879830197
1.2099679118665792E8 0.9914611417960976 -0.06572542996818255 0.00853885820390229 0.06572542996818254 0.00853885820390229 0.06572542996818254 0.9914611417960976 -0.06572542996818255
1.2282280261157903E8 0.9912528545098336 -0.06701103018801598 0.00874714549016637 0.06701103018801598 0.00874714549016637 0.06701103018801598 0.9912528545098336 -0.06701103018801598
1.2467637111211549E8 0.9910378421148551 -0.06831113177739719 0.008962157885144949 0.06831113177739719 0.008962157885144949 0.06831113177739719 0.9910378421148551 -0.06831113177739719
1.265579125632208E8 0.9908159077547004 -0.06962599914760122 0.009184092245299643 0.06962599914760122 0.009184092245299643 0.06962599914760122 0.9908159077547004 -0.06962599914760122
1.284678491159853E8 0.9905868481507926 -0.07095589879985977 0.009413151849207506 0.07095589879985979 0.009413151849207506 0.07095589879985979 0.9905868481507926 -0.07095589879985977
1.3040660929235186E8 0.9903504534060449 -0.07230109932116267 0.009649546593955213 0.07230109932116267 0.009649546593955213 0.07230109932116267 0.9903504534060449 -0.07230109932116267
1.3237462808126101E8 0.9901065068017659 -0.0736618713774199 0.009893493198234122 0.0736618713774199 0.009893493198234122 0.0736618713774199 0.9901065068017659 -0.0736618713774199
1.3437234703624701E8 0.989854784587631 -0.07503848770381137 0.010145215412369136 0.07503848770381137 0.010145215412369136 0.07503848770381137 0.989854784587631 -0.07503848770381137
1.364002143745067E8 0.9895950557644765 -0.07643122309214102 0.01040494423552355 0.07643122309214101 0.01040494423552355 0.07643122309214101 0.9895950557644765 -0.07643122309214102
1.3845868507746372E8 0.9893270818596684 -0.07784035437500066 0.01067291814033162 0.07784035437500064 0.01067291814033162 0.07784035437500064 0.9893270818596684 -0.07784035437500066
1.405482209928499E8 0.9890506166947791 -0.07926616040653801 0.010949383305220916 0.07926616040653801 0.010949383305220916 0.07926616040653801 0.9890506166947791 -0.07926616040653801
1.426692909383278E8 0.9887654061453028 -0.08070892203961147 0.01123459385469714 0.08070892203961147 0.01123459385469714 0.08070892203961147 0.9887654061453028 -0.08070892203961147
1.4482237080667645E8 0.9884711878921248 -0.08216892209909966 0.011528812107875179 0.08216892209909968 0.011528812107875179 0.08216892209909968 0.9884711878921248 -0.08216892209909966
1.4700794367256513E8 0.9881676911644478 -0.0836464453511228 0.011832308835552224 0.08364644535112278 0.011832308835552224 0.08364644535112278 0.9881676911644478 -0.0836464453511228
1.492264999009378E8 0.9878546364738693 -0.08514177846791479 0.012145363526130782 0.08514177846791479 0.012145363526130782 0.08514177846791479 0.9878546364738693 -0.08514177846791479
1.5147853725703382E8 0.9875317353392872 -0.08665520998807276 0.012468264660712807 0.08665520998807277 0.012468264660712807 0.08665520998807277 0.9875317353392872 -0.08665520998807276
1.5376456101806876E8 0.9871986900023005 -0.08818703027189131 0.012801309997699625 0.08818703027189133 0.012801309997699625 0.08818703027189133 0.9871986900023005 -0.08818703027189131
1.5608508408660066E8 0.986855193132753 -0.08973753145147277 0.013144806867246967 0.08973753145147276 0.013144806867246967 0.08973753145147276 0.986855193132753 -0.08973753145147277
1.5844062710560706E8 0.9865009275240604 -0.09130700737528516 0.013499072475939601 0.09130700737528516 0.013499072475939601 0.09130700737528516 0.9865009275240604 -0.09130700737528516
1.6083171857529896E8 0.9861355657779339 -0.09289575354681934 0.01386443422206611 0.09289575354681934 0.01386443422206611 0.09289575354681934 0.9861355657779339 -0.09289575354681934
1.632588949716973E8 0.9857587699781084 -0.09450406705697532 0.01424123002189156 0.09450406705697531 0.01424123002189156 0.09450406705697531 0.9857587699781084 -0.09450406705697532
1.6572270086699936E8 0.9853701913526562 -0.09613224650978502 0.014629808647343671 0.09613224650978502 0.014629808647343671 0.09613224650978502 0.9853701913526562 -0.09613224650978502
1.6822368905176118E8 0.9849694699244529 -0.09778059194105312 0.01503053007554714 0.09778059194105311 0.01503053007554714 0.09778059194105311 0.9849694699244529 -0.09778059194105312
1.7076242065892437E8 0.9845562341493388 -0.09944940472947272 0.015443765850661144 0.09944940472947275 0.015443765850661144 0.09944940472947275 0.9845562341493388 -0.09944940472947272
1.7333946528971428E8 0.9841301005415036 -0.10113898749974264 0.015869899458496303 0.10113898749974268 0.015869899458496303 0.10113898749974268 0.9841301005415036 -0.10113898749974264
1.7595540114143828E8 0.9836906732855898 -0.10284964401718377 0.0163093267144102 0.10284964401718377 0.0163093267144102 0.10284964401718377 0.9836906732855898 -0.10284964401718377
1.786108151372127E8 0.983237543834995 -0.10458167907331985 0.016762456165004977 0.10458167907331985 0.016762456165004977 0.10458167907331985 0.983237543834995 -0.10458167907331985
1.8130630305764765E8 0.9827702904958241 -0.10633539836185141 0.017229709504175805 0.10633539836185138 0.017229709504175805 0.10633539836185138 0.9827702904958241 -0.10633539836185141
1.840424696745189E8 0.9822884779959129 -0.10811110834441567 0.017711522004087054 0.1081111083444157 0.017711522004087054 0.1081111083444157 0.9822884779959129 -0.10811110834441567
1.8681992888645732E8 0.9817916570383183 -0.10990911610548379 0.018208342961681716 0.10990911610548379 0.018208342961681716 0.10990911610548379 0.9817916570383183 -0.10990911610548379
1.8963930385668582E8 0.9812793638386387 -0.1117297291957032 0.018720636161361333 0.1117297291957032 0.018720636161361333 0.1117297291957032 0.9812793638386387 -0.1117297291957032
1.92501227152835E8 0.9807511196454933 -0.11357325546294635 0.019248880354506715 0.11357325546294633 0.019248880354506715 0.11357325546294633 0.9807511196454933 -0.11357325546294635
1.9540634088886917E8 0.9802064302434541 -0.11544000287027559 0.01979356975654588 0.11544000287027556 0.01979356975654588 0.11544000287027556 0.9802064302434541 -0.11544000287027559
1.983552968691535E8 0.9796447854376866 -0.11733027929997854 0.020355214562313335 0.11733027929997857 0.020355214562313335 0.11733027929997857 0.9796447854376866 -0.11733027929997854
2.0134875673469606E8 0.9790656585195132 -0.11924439234277075 0.020934341480486722 0.11924439234277077 0.020934341480486722 0.11924439234277077 0.9790656585195132 -0.11924439234277075
2.0438739211159652E8 0.9784685057120698 -0.12118264907119429 0.021531494287930095 0.12118264907119432 0.021531494287930095 0.12118264907119432 0.9784685057120698 -0.12118264907119429
2.074718847617352E8 0.9778527655951792 -0.12314535579617363 0.022147234404820797 0.12314535579617364 0.022147234404820797 0.12314535579617364 0.9778527655951792 -0.12314535579617363
2.106029267357361E8 0.9772178585085117 -0.12513281780561325 0.022782141491488293 0.12513281780561328 0.022782141491488293 0.12513281780561328 0.9772178585085117 -0.12513281780561325
2.1378122052823865E8 0.9765631859320529 -0.1271453390838361 0.0234368140679472 0.1271453390838361 0.0234368140679472 0.1271453390838361 0.9765631859320529 -0.1271453390838361
2.1700747923551247E8 0.9758881298428334 -0.12918322201057342 0.024111870157166752 0.12918322201057345 0.024111870157166752 0.12918322201057345 0.9758881298428334 -0.12918322201057342
2.2028242671545094E8 0.9751920520468177 -0.13124676703811664 0.024807947953182287 0.13124676703811666 0.024807947953182287 0.13124676703811666 0.9751920520468177 -0.13124676703811664
2.23606797749979E8 0.9744742934847769 -0.1333362723451318 0.025525706515223234 0.13333627234513182 0.025525706515223234 0.13333627234513182 0.9744742934847769 -0.1333362723451318
2.2698133820991236E8 0.9737341735108936 -0.13545203346552 0.02626582648910648 0.13545203346552 0.02626582648910648 0.13545203346552 0.9737341735108936 -0.13545203346552
2.3040680522230446E8 0.9729709891427756 -0.13759434289057468 0.027029010857224547 0.1375943428905747 0.027029010857224547 0.1375943428905747 0.9729709891427756 -0.13759434289057468
2.338839673403185E8 0.9721840142814555 -0.13976348964254273 0.027815985718544527 0.13976348964254276 0.027815985718544527 0.13976348964254276 0.9721840142814555 -0.13976348964254273
2.37413604715664E8 0.9713724988998713 -0.1419597588175377 0.02862750110012866 0.1419597588175377 0.02862750110012866 0.1419597588175377 0.9713724988998713 -0.1419597588175377
2.4099650927363476E8 0.9705356681982112 -0.14418343109557918 0.02946433180178884 0.14418343109557918 0.02946433180178884 0.14418343109557918 0.9705356681982112 -0.14418343109557918
2.446334848907889E8 0.9696727217244019 -0.14643478221533512 0.03032727827559815 0.14643478221533512 0.03032727827559815 0.14643478221533512 0.9696727217244019 -0.14643478221533512
