!Murata Part Number: LQW15CA22NJ00
!These Parameters are Measured in Series Mode Connection
!       o--[Z]--o
!Port1              Port2
!       o-------o
!
!Freq. Start=10[MHz] Stop=20[GHz], 401[Steps]
# Hz S RI R 50
!Freq.(Hz) S11(Real) S11(Imag) S21(Real) S21(Imag) S12(Real) S12(Imag) S22(Real) S22(Imag)
1.0E7 0.0014005865334998488 0.013976949427114253 0.9985994134665 -0.013976949427114251 0.9985994134665 -0.013976949427114251 0.0014005865334998488 0.013976949427114253
1.0191839480455115E7 0.0014278106612851502 0.014233042040973795 0.9985721893387149 -0.014233042040973795 0.9985721893387149 -0.014233042040973795 0.0014278106612851502 0.014233042040973795
1.0387359199536363E7 0.0014556546093532701 0.014493715915804326 0.9985443453906466 -0.014493715915804326 0.9985443453906466 -0.014493715915804326 0.0014556546093532701 0.014493715915804326
1.0586629758750336E7 0.0014841300696235838 0.01475905719972246 0.9985158699303762 -0.014759057199722456 0.9985158699303762 -0.014759057199722456 0.0014841300696235838 0.01475905719972246
1.0789723114019271E7 0.0015132492985151166 0.01502915399562321 0.998486750701485 -0.015029153995623212 0.998486750701485 -0.015029153995623212 0.0015132492985151166 0.01502915399562321
1.0996712601664074E7 0.0015430251666975316 0.01530409639415857 0.9984569748333024 -0.01530409639415857 0.9984569748333024 -0.01530409639415857 0.0015430251666975316 0.01530409639415857
1.1207672964885822E7 0.0015734712105363435 0.015583976504953072 0.9984265287894636 -0.015583976504953072 0.9984265287894636 -0.015583976504953072 0.0015734712105363435 0.015583976504953072
1.1422680380755277E7 0.0016046016851005856 0.0158688884859533 0.9983953983148995 -0.0158688884859533 0.9983953983148995 -0.0158688884859533 0.0016046016851005856 0.0158688884859533
1.1641812487720173E7 0.0016364316185922777 0.01615892857082116 0.9983635683814076 -0.01615892857082116 0.9983635683814076 -0.01615892857082116 0.0016364316185922777 0.01615892857082116
1.1865148413640184E7 0.0016689768680496308 0.016454195094295 0.9983310231319503 -0.016454195094294997 0.9983310231319503 -0.016454195094294997 0.0016689768680496308 0.016454195094295
1.2092768804359745E7 0.001702254176170029 0.01675478851545711 0.9982977458238298 -0.016754788515457107 0.9982977458238298 -0.016754788515457107 0.001702254176170029 0.01675478851545711
1.2324755852828966E7 0.0017362812290945225 0.017060811438861546 0.9982637187709054 -0.017060811438861546 0.9982637187709054 -0.017060811438861546 0.0017362812290945225 0.017060811438861546
1.2561193328783253E7 0.0017710767149930334 0.017372368633491873 0.9982289232850069 -0.017372368633491873 0.9982289232850069 -0.017372368633491873 0.0017710767149930334 0.017372368633491873
1.280216660899226E7 0.0018066603832885024 0.017689567049534116 0.9981933396167115 -0.017689567049534116 0.9981933396167115 -0.017689567049534116 0.0018066603832885024 0.017689567049534116
1.3047762708089152E7 0.0018430531043590306 0.018012515832965956 0.9981569468956408 -0.018012515832965956 0.9981569468956408 -0.018012515832965956 0.0018430531043590306 0.018012515832965956
1.3298070309991302E7 0.0018802769295595241 0.01834132633797872 0.9981197230704403 -0.018341326337978716 0.9981197230704403 -0.018341326337978716 0.0018802769295595241 0.01834132633797872
1.3553179799923737E7 0.0019183551514084277 0.018676112137263667 0.9980816448485919 -0.018676112137263664 0.9980816448485919 -0.018676112137263664 0.0019183551514084277 0.018676112137263667
1.3813183297056952E7 0.0019573123637906765 0.019016989030208466 0.9980426876362093 -0.019016989030208466 0.9980426876362093 -0.019016989030208466 0.0019573123637906765 0.019016989030208466
1.4078174687770821E7 0.001997174522035062 0.019364075049063297 0.9980028254779649 -0.0193640750490633 0.9980028254779649 -0.0193640750490633 0.001997174522035062 0.019364075049063297
1.4348249659556655E7 0.0020379690027324516 0.019717490463148593 0.9979620309972674 -0.01971749046314859 0.9979620309972674 -0.01971749046314859 0.0020379690027324516 0.019717490463148593
1.4623505735569622E7 0.0020797246631707724 0.020077357781187966 0.9979202753368294 -0.020077357781187966 0.9979202753368294 -0.020077357781187966 0.0020797246631707724 0.020077357781187966
1.490404230984403E7 0.0021224719002730483 0.020443801751860096 0.9978775280997267 -0.020443801751860096 0.9978775280997267 -0.020443801751860096 0.0021224719002730483 0.020443801751860096
1.5189960683184188E7 0.0021662427089360406 0.02081694936267249 0.997833757291064 -0.020816949362672494 0.997833757291064 -0.020816949362672494 0.0021662427089360406 0.02081694936267249
1.548136409974376E7 0.0022110707396788146 0.02119692983726723 0.9977889292603211 -0.02119692983726723 0.9977889292603211 -0.02119692983726723 0.0022110707396788146 0.02119692983726723
1.5778357784306893E7 0.0022569913555229317 0.0215838746312759 0.9977430086444771 -0.0215838746312759 0.9977430086444771 -0.0215838746312759 0.0022569913555229317 0.0215838746312759
1.608104898028453E7 0.002304041688038378 0.02197791742684484 0.9976959583119616 -0.02197791742684484 0.9976959583119616 -0.02197791742684484 0.002304041688038378 0.02197791742684484
1.638954698843964E7 0.0023522606925020567 0.022379194125956053 0.9976477393074978 -0.022379194125956053 0.9976477393074978 -0.022379194125956053 0.0023522606925020567 0.022379194125956053
1.6703963206355339E7 0.002401689202128087 0.022787842842671 0.997598310797872 -0.022787842842671 0.997598310797872 -0.022787842842671 0.002401689202128087 0.022787842842671
1.7024411168660197E7 0.0024523699813414433 0.0232040038944255 0.9975476300186586 -0.0232040038944255 0.9975476300186586 -0.0232040038944255 0.0024523699813414433 0.0232040038944255
1.7351006588025205E7 0.0025043477780782772 0.02362781979250376 0.9974956522219215 -0.02362781979250376 0.9974956522219215 -0.02362781979250376 0.0025043477780782772 0.02362781979250376
1.768386739694721E7 0.002557669375107561 0.024059435231818384 0.9974423306248925 -0.024059435231818384 0.9974423306248925 -0.024059435231818384 0.002557669375107561 0.024059435231818384
1.8023113790333964E7 0.0026123836403793106 0.02449899708012078 0.9973876163596207 -0.02449899708012078 0.9973876163596207 -0.02449899708012078 0.0026123836403793106 0.02449899708012078
1.836886826890608E7 0.0026685415764145723 0.02494665436676367 0.9973314584235853 -0.02494665436676367 0.9973314584235853 -0.02494665436676367 0.0026685415764145723 0.02494665436676367
1.872125568343162E7 0.0027261963687613914 0.025402558271133725 0.9972738036312385 -0.025402558271133725 0.9972738036312385 -0.025402558271133725 0.0027261963687613914 0.025402558271133725
1.9080403279809315E7 0.0027854034335492526 0.025866862110868128 0.9972145965664507 -0.025866862110868135 0.9972145965664507 -0.025866862110868135 0.0027854034335492526 0.025866862110868128
1.9446440745016586E7 0.002846220464181774 0.026339721329964573 0.9971537795358182 -0.026339721329964573 0.9971537795358182 -0.026339721329964573 0.002846220464181774 0.026339721329964573
1.9819500253939107E7 0.002908707477213932 0.026821293486889553 0.9970912925227859 -0.026821293486889553 0.9970912925227859 -0.026821293486889553 0.002908707477213932 0.026821293486889553
2.0199716517098684E7 0.0029729268574656864 0.027311738242785263 0.9970270731425344 -0.027311738242785263 0.9970270731425344 -0.027311738242785263 0.0029729268574656864 0.027311738242785263
2.0587226829296768E7 0.0030389434024286547 0.027811217349870687 0.9969610565975713 -0.027811217349870687 0.9969610565975713 -0.027811217349870687 0.0030389434024286547 0.027811217349870687
2.0982171119191162E7 0.003106824366026603 0.028319894640128955 0.9968931756339734 -0.028319894640128955 0.9968931756339734 -0.028319894640128955 0.003106824366026603 0.028319894640128955
2.138469199982376E7 0.0031766395017937743 0.028837936014367953 0.9968233604982063 -0.028837936014367953 0.9968233604982063 -0.028837936014367953 0.0031766395017937743 0.028837936014367953
2.1794934820117645E7 0.0032484611055380863 0.029365509431739503 0.9967515388944618 -0.0293655094317395 0.9967515388944618 -0.0293655094317395 0.0032484611055380863 0.029365509431739503
2.22130477173621E7 0.0033223640575585243 0.029902784899798463 0.9966776359424416 -0.029902784899798463 0.9966776359424416 -0.029902784899798463 0.0033223640575585243 0.029902784899798463
2.263918167070445E7 0.0033984258644881886 0.030449934465181776 0.9966015741355119 -0.030449934465181776 0.9966015741355119 -0.030449934465181776 0.0033984258644881886 0.030449934465181776
2.307349055566814E7 0.003476726700836458 0.031007132204986295 0.9965232732991635 -0.03100713220498629 0.9965232732991635 -0.03100713220498629 0.003476726700836458 0.031007132204986295
2.3516131199716687E7 0.0035573494503056764 0.0315745542189237 0.9964426505496944 -0.0315745542189237 0.9964426505496944 -0.0315745542189237 0.0035573494503056764 0.0315745542189237
2.396726343888349E7 0.003640379746959884 0.03215237862233136 0.9963596202530399 -0.03215237862233136 0.9963596202530399 -0.03215237862233136 0.003640379746959884 0.03215237862233136
2.4427050175488118E7 0.0037259060163256936 0.03274078554011955 0.9962740939836743 -0.03274078554011955 0.9962740939836743 -0.03274078554011955 0.0037259060163256936 0.03274078554011955
2.4895657436959792E7 0.0038140195165083097 0.033339957101737164 0.9961859804834917 -0.033339957101737164 0.9961859804834917 -0.033339957101737164 0.0038140195165083097 0.033339957101737164
2.5373254435789287E7 0.0039048143794095133 0.033950077437241745 0.9960951856205904 -0.033950077437241745 0.9960951856205904 -0.033950077437241745 0.0039048143794095133 0.033950077437241745
2.586001363063102E7 0.003998387652138979 0.03457133267456284 0.9960016123478611 -0.03457133267456284 0.9960016123478611 -0.03457133267456284 0.003998387652138979 0.03457133267456284
2.635611078857727E7 0.004094839338715857 0.03520391093805201 0.995905160661284 -0.03520391093805201 0.995905160661284 -0.03520391093805201 0.004094839338715857 0.03520391093805201
2.6861725048627086E7 0.00419427244216458 0.035848002348418645 0.9958057275578355 -0.035848002348418645 0.9958057275578355 -0.035848002348418645 0.00419427244216458 0.035848002348418645
2.737703898637277E7 0.004296793007116873 0.03650379902415454 0.995703206992883 -0.036503799024154536 0.995703206992883 -0.036503799024154536 0.004296793007116873 0.03650379902415454
2.7902238679927293E7 0.004402510163041921 0.03717149508455759 0.9955974898369582 -0.03717149508455759 0.9955974898369582 -0.03717149508455759 0.004402510163041921 0.03717149508455759
2.843751377711649E7 0.0045115361682379505 0.03785128665446926 0.9954884638317619 -0.03785128665446926 0.9954884638317619 -0.03785128665446926 0.0045115361682379505 0.03785128665446926
2.898305756396021E7 0.004623986454731778 0.038543371870846804 0.9953760135452682 -0.03854337187084681 0.9953760135452682 -0.03854337187084681 0.004623986454731778 0.038543371870846804
2.95390670344673E7 0.004739979674247983 0.03924795089129611 0.995260020325752 -0.0392479508912961 0.995260020325752 -0.0392479508912961 0.004739979674247983 0.03924795089129611
3.0105742961769406E7 0.004859637745426584 0.039965225904696124 0.9951403622545735 -0.039965225904696124 0.9951403622545735 -0.039965225904696124 0.004859637745426584 0.039965225904696124
3.068328997061952E7 0.00498308590248724 0.04069540114404933 0.9950169140975127 -0.04069540114404933 0.9950169140975127 -0.04069540114404933 0.00498308590248724 0.04069540114404933
3.1271916611281253E7 0.005110452745559326 0.04143868290169563 0.9948895472544407 -0.04143868290169563 0.9948895472544407 -0.04143868290169563 0.005110452745559326 0.04143868290169563
3.187183543483565E7 0.005241870292920741 0.04219527954702844 0.9947581297070794 -0.042195279547028446 0.9947581297070794 -0.042195279547028446 0.005241870292920741 0.04219527954702844
3.2483263069932636E7 0.00537747403541376 0.042965401546851106 0.9946225259645861 -0.0429654015468511 0.9946225259645861 -0.0429654015468511 0.00537747403541376 0.042965401546851106
3.310642030101491E7 0.005517402993334046 0.043749261488510056 0.994482597006666 -0.04374926148851006 0.994482597006666 -0.04374926148851006 0.005517402993334046 0.043749261488510056
3.3741532148042455E7 0.005661799776118312 0.04454707410593539 0.9943382002238816 -0.04454707410593539 0.9943382002238816 -0.04454707410593539 0.005661799776118312 0.04454707410593539
3.438882794774647E7 0.005810810645187874 0.045359056308713126 0.9941891893548119 -0.04535905630871312 0.9941891893548119 -0.04535905630871312 0.005810810645187874 0.045359056308713126
3.504854143644208E7 0.005964585580338253 0.046185427214301765 0.9940354144196616 -0.046185427214301765 0.9940354144196616 -0.046185427214301765 0.005964585580338253 0.046185427214301765
3.572091083442975E7 0.006123278350099932 0.04702640818349331 0.9938767216499003 -0.04702640818349331 0.9938767216499003 -0.04702640818349331 0.006123278350099932 0.04702640818349331
3.640617893201581E7 0.006287046586531075 0.04788222285919959 0.9937129534134688 -0.04788222285919958 0.9937129534134688 -0.04788222285919958 0.006287046586531075 0.04788222285919959
3.7104593177183196E7 0.0064560518649400545 0.04875309720862463 0.9935439481350598 -0.04875309720862462 0.9935439481350598 -0.04875309720862462 0.0064560518649400545 0.04875309720862463
3.781640576494413E7 0.006630459789073102 0.049639259568856606 0.9933695402109268 -0.04963925956885661 0.9933695402109268 -0.04963925956885661 0.006630459789073102 0.049639259568856606
3.85418737284068E7 0.006810440082340055 0.05054094069588287 0.99318955991766 -0.05054094069588288 0.99318955991766 -0.05054094069588288 0.006810440082340055 0.05054094069588287
3.928125903158923E7 0.006996166685688819 0.05145837381699599 0.9930038333143112 -0.05145837381699598 0.9930038333143112 -0.05145837381699598 0.006996166685688819 0.05145837381699599
4.003482866401353E7 0.007187817862775734 0.05239179468651719 0.9928121821372241 -0.05239179468651719 0.9928121821372241 -0.05239179468651719 0.007187817862775734 0.05239179468651719
4.080285473711493E7 0.0073855763131148704 0.053341441644719004 0.9926144236868851 -0.053341441644719004 0.9926144236868851 -0.053341441644719004 0.0073855763131148704 0.053341441644719004
4.158561458250031E7 0.0075896292939227564 0.05430755567977581 0.9924103707060773 -0.05430755567977581 0.9924103707060773 -0.05430755567977581 0.0075896292939227564 0.05430755567977581
4.2383390852091655E7 0.007800168751406511 0.055290380492515355 0.9921998312485933 -0.05529038049251536 0.9921998312485933 -0.05529038049251536 0.007800168751406511 0.055290380492515355
4.319647162019081E7 0.008017391462271633 0.05629016256368111 0.9919826085377282 -0.05629016256368111 0.9919826085377282 -0.05629016256368111 0.008017391462271633 0.05629016256368111
4.402515048750197E7 0.008241499186249912 0.05730715122334686 0.9917585008137499 -0.05730715122334686 0.9917585008137499 -0.05730715122334686 0.008241499186249912 0.05730715122334686
4.486972668715004E7 0.008472698830468514 0.058341598722053356 0.9915273011695314 -0.05834159872205335 0.9915273011695314 -0.05834159872205335 0.008472698830468514 0.058341598722053356
4.573050519273264E7 0.00871120262649564 0.05939376030315625 0.9912887973735043 -0.05939376030315625 0.9912887973735043 -0.05939376030315625 0.00871120262649564 0.05939376030315625
4.6607796828445025E7 0.00895722832090766 0.06046389427579274 0.9910427716790924 -0.06046389427579274 0.9910427716790924 -0.06046389427579274 0.00895722832090766 0.06046389427579274
4.750191838131767E7 0.009210999380225047 0.06155226208778645 0.9907890006197749 -0.061552262087786434 0.9907890006197749 -0.061552262087786434 0.009210999380225047 0.06155226208778645
4.8413192715607E7 0.009472745211059754 0.06265912839771796 0.9905272547889402 -0.06265912839771798 0.9905272547889402 -0.06265912839771798 0.009472745211059754 0.06265912839771796
4.934194888938056E7 0.009742701396304268 0.06378476114529419 0.9902572986036957 -0.06378476114529419 0.9902572986036957 -0.06378476114529419 0.009742701396304268 0.06378476114529419
5.0288522273338735E7 0.010021109948171777 0.06492943161905197 0.9899788900518284 -0.06492943161905197 0.9899788900518284 -0.06492943161905197 0.010021109948171777 0.06492943161905197
5.125325467191602E7 0.010308219578866814 0.06609341452033125 0.9896917804211333 -0.06609341452033125 0.9896917804211333 -0.06609341452033125 0.010308219578866814 0.06609341452033125
5.223649444670544E7 0.010604285989626839 0.06727698802235367 0.9893957140103731 -0.06727698802235367 0.9893957140103731 -0.06727698802235367 0.010604285989626839 0.06727698802235367
5.32385966422507E7 0.010909572178826089 0.06848043382314069 0.9890904278211738 -0.06848043382314069 0.9890904278211738 -0.06848043382314069 0.010909572178826089 0.06848043382314069
5.425992311425159E7 0.011224348769774049 0.06970403719090568 0.9887756512302259 -0.06970403719090568 0.9887756512302259 -0.06970403719090568 0.011224348769774049 0.06970403719090568
5.530084266022885E7 0.01154889435877187 0.07094808700045659 0.9884511056412281 -0.07094808700045659 0.9884511056412281 -0.07094808700045659 0.01154889435877187 0.07094808700045659
5.63617311526957E7 0.011883495883910904 0.07221287575905046 0.9881165041160891 -0.07221287575905046 0.9881165041160891 -0.07221287575905046 0.011883495883910904 0.07221287575905046
5.744297167488412E7 0.012228449015007725 0.0734986996200492 0.9877715509849923 -0.07349869962004918 0.9877715509849923 -0.07349869962004918 0.012228449015007725 0.0734986996200492
5.8544954659074895E7 0.012584058564971414 0.07480585838264053 0.9874159414350284 -0.07480585838264053 0.9874159414350284 -0.07480585838264053 0.012584058564971414 0.07480585838264053
5.9668078027581416E7 0.012950638922789706 0.07613465547580768 0.9870493610772104 -0.07613465547580768 0.9870493610772104 -0.07613465547580768 0.012950638922789706 0.07613465547580768
6.0812747336438075E7 0.01332851450820333 0.07748539792465792 0.9866714854917966 -0.07748539792465793 0.9866714854917966 -0.07748539792465793 0.01332851450820333 0.07748539792465792
6.197937592184514E7 0.013718020248011808 0.07885839629715591 0.9862819797519883 -0.07885839629715591 0.9862819797519883 -0.07885839629715591 0.013718020248011808 0.07885839629715591
6.3168385049423054E7 0.014119502073820546 0.08025396462925095 0.9858804979261796 -0.08025396462925094 0.9858804979261796 -0.08025396462925094 0.014119502073820546 0.08025396462925095
6.438020406633007E7 0.014533317440899123 0.08167242032634255 0.9854666825591006 -0.08167242032634253 0.9854666825591006 -0.08167242032634253 0.014533317440899123 0.08167242032634255
6.561527055629799E7 0.014959835867674529 0.08311408403899072 0.9850401641323255 -0.08311408403899072 0.9850401641323255 -0.08311408403899072 0.014959835867674529 0.08311408403899072
6.6874030497642204E7 0.015399439495233314 0.08457927951075528 0.9846005605047666 -0.08457927951075528 0.9846005605047666 -0.08457927951075528 0.015399439495233314 0.08457927951075528
6.815693842430294E7 0.015852523666052422 0.0860683333960335 0.9841474763339476 -0.0860683333960335 0.9841474763339476 -0.0860683333960335 0.015852523666052422 0.0860683333960335
6.946445758997591E7 0.016319497521022516 0.08758157504576361 0.9836805024789774 -0.08758157504576361 0.9836805024789774 -0.08758157504576361 0.016319497521022516 0.08758157504576361
7.079706013539167E7 0.0168007846136707 0.08911933625887311 0.9831992153863294 -0.08911933625887312 0.9831992153863294 -0.08911933625887312 0.0168007846136707 0.08911933625887311
7.215522725880398E7 0.017296823540332282 0.09068195099737034 0.9827031764596678 -0.09068195099737035 0.9827031764596678 -0.09068195099737035 0.017296823540332282 0.09068195099737034
7.353944938974898E7 0.0178080685848659 0.09226975506301288 0.9821919314151342 -0.09226975506301288 0.9821919314151342 -0.09226975506301288 0.0178080685848659 0.09226975506301288
