!Murata Part Number: LQW15AN3N8C10
!These Parameters are Measured in Series Mode Connection
!       o--[Z]--o
!Port1              Port2
!       o-------o
!
!Freq. Start=50[MHz] Stop=20[GHz], 401[Steps]
# Hz S RI R 50
!Freq.(Hz) S11(Real) S11(Imag) S21(Real) S21(Imag) S12(Real) S12(Imag) S22(Real) S22(Imag)
5.0E7 6.032853295027229E-4 0.011189021351938227 0.9993967146704974 -0.011189021351938227 0.9993967146704974 -0.011189021351938227 6.032853295027229E-4 0.011189021351938227
5.0754570186123446E7 6.112543695601435E-4 0.011355134974876004 0.9993887456304397 -0.011355134974876004 0.9993887456304397 -0.011355134974876004 6.112543695601435E-4 0.011355134974876004
5.152052789556263E7 6.1938914388166E-4 0.011523683824579323 0.9993806108561185 -0.011523683824579323 0.9993806108561185 -0.011523683824579323 6.1938914388166E-4 0.011523683824579323
5.229804498202928E7 6.276923588777921E-4 0.011694703858837915 0.9993723076411223 -0.011694703858837913 0.9993723076411223 -0.011694703858837913 6.276923588777921E-4 0.011694703858837915
5.308729589274893E7 6.361667806198639E-4 0.011868231620594201 0.9993638332193803 -0.011868231620594201 0.9993638332193803 -0.011868231620594201 6.361667806198639E-4 0.011868231620594201
5.388845770760058E7 6.44815239279156E-4 0.012044304248775088 0.9993551847607207 -0.012044304248775086 0.9993551847607207 -0.012044304248775086 6.44815239279156E-4 0.012044304248775088
5.470171017884717E7 6.53640633835438E-4 0.012222959489201147 0.9993463593661644 -0.012222959489201147 0.9993463593661644 -0.012222959489201147 6.53640633835438E-4 0.012222959489201147
5.5527235771465644E7 6.626459370578234E-4 0.012404235705562776 0.9993373540629421 -0.012404235705562774 0.9993373540629421 -0.012404235705562774 6.626459370578234E-4 0.012404235705562776
5.6365219704085544E7 6.718342007601465E-4 0.01258817189045281 0.9993281657992398 -0.01258817189045281 0.9993281657992398 -0.01258817189045281 6.718342007601465E-4 0.01258817189045281
5.721584999054556E7 6.812085613322632E-4 0.012774807676445022 0.999318791438668 -0.012774807676445022 0.999318791438668 -0.012774807676445022 6.812085613322632E-4 0.012774807676445022
5.807931748207712E7 6.907722455478877E-4 0.012964183347207803 0.9993092277544522 -0.012964183347207803 0.9993092277544522 -0.012964183347207803 6.907722455478877E-4 0.012964183347207803
5.8955815910124585E7 7.005285766487763E-4 0.013156339848642564 0.9992994714233513 -0.013156339848642564 0.9992994714233513 -0.013156339848642564 7.005285766487763E-4 0.013156339848642564
5.984554192981184E7 7.10480980704256E-4 0.013351318800036285 0.9992895190192959 -0.013351318800036285 0.9992895190192959 -0.013351318800036285 7.10480980704256E-4 0.013351318800036285
6.074869516406457E7 7.206329932442935E-4 0.013549162505218022 0.9992793670067557 -0.013549162505218022 0.9992793670067557 -0.013549162505218022 7.206329932442935E-4 0.013549162505218022
6.166547824839868E7 7.309882661635324E-4 0.013749913963709481 0.9992690117338366 -0.013749913963709481 0.9992690117338366 -0.013749913963709481 7.309882661635324E-4 0.013749913963709481
6.2596096876384385E7 7.415505748929282E-4 0.013953616881859879 0.9992584494251071 -0.013953616881859879 0.9992584494251071 -0.013953616881859879 7.415505748929282E-4 0.013953616881859879
6.354075984579668E7 7.523238258348991E-4 0.01416031568395606 0.999247676174165 -0.01416031568395606 0.999247676174165 -0.01416031568395606 7.523238258348991E-4 0.01416031568395606
6.449967910546205E7 7.633120640571972E-4 0.014370055523299109 0.9992366879359427 -0.014370055523299109 0.9992366879359427 -0.014370055523299109 7.633120640571972E-4 0.014370055523299109
6.547306980281226E7 7.745194812400286E-4 0.01458288229323928 0.99922548051876 -0.01458288229323928 0.99922548051876 -0.01458288229323928 7.745194812400286E-4 0.01458288229323928
6.646115033215589E7 7.859504238703704E-4 0.014798842638161913 0.9992140495761296 -0.014798842638161913 0.9992140495761296 -0.014798842638161913 7.859504238703704E-4 0.014798842638161913
6.746414238367817E7 7.976094016768393E-4 0.015017983964417354 0.9992023905983233 -0.015017983964417357 0.9992023905983233 -0.015017983964417357 7.976094016768393E-4 0.015017983964417354
6.848227099318038E7 8.095010962979973E-4 0.01524035445118894 0.9991904989037023 -0.01524035445118894 0.9991904989037023 -0.01524035445118894 8.095010962979973E-4 0.01524035445118894
6.951576459256999E7 8.216303701765436E-4 0.015466003061293804 0.9991783696298234 -0.015466003061293804 0.9991783696298234 -0.015466003061293804 8.216303701765436E-4 0.015466003061293804
7.056485506111258E7 8.340022756714762E-4 0.015694979551912028 0.9991659977243287 -0.015694979551912028 0.9991659977243287 -0.015694979551912028 8.340022756714762E-4 0.015694979551912028
7.162977777745734E7 8.466220643800513E-4 0.01592733448524065 0.9991533779356199 -0.01592733448524065 0.9991533779356199 -0.01592733448524065 8.466220643800513E-4 0.01592733448524065
7.271077167244768E7 8.594951966611423E-4 0.016163119239069944 0.9991405048033389 -0.016163119239069944 0.9991405048033389 -0.016163119239069944 8.594951966611423E-4 0.016163119239069944
7.380807928272885E7 8.726273513515084E-4 0.016402386017280224 0.9991273726486485 -0.016402386017280224 0.9991273726486485 -0.016402386017280224 8.726273513515084E-4 0.016402386017280224
7.492194680516452E7 8.860244356664461E-4 0.0166451878602585 0.9991139755643336 -0.0166451878602585 0.9991139755643336 -0.0166451878602585 8.860244356664461E-4 0.0166451878602585
7.60526241520746E7 8.996925952763468E-4 0.01689157865523521 0.9991003074047236 -0.01689157865523521 0.9991003074047236 -0.01689157865523521 8.996925952763468E-4 0.01689157865523521
7.720036500730675E7 9.136382245508333E-4 0.017141613146542087 0.9990863617754492 -0.017141613146542084 0.9990863617754492 -0.017141613146542084 9.136382245508333E-4 0.017141613146542087
7.836542688315398E7 9.278679769623997E-4 0.01739534694579353 0.9990721320230376 -0.01739534694579353 0.9990721320230376 -0.01739534694579353 9.278679769623997E-4 0.01739534694579353
7.954807117813127E7 9.423887756417474E-4 0.017652836541994153 0.9990576112243582 -0.017652836541994153 0.9990576112243582 -0.017652836541994153 9.423887756417474E-4 0.017652836541994153
8.074856323562416E7 9.572078240774756E-4 0.017914139311576895 0.9990427921759224 -0.017914139311576895 0.9990427921759224 -0.017914139311576895 9.572078240774756E-4 0.017914139311576895
8.196717240342227E7 9.723326169532092E-4 0.01817931352837613 0.9990276673830469 -0.01817931352837613 0.9990276673830469 -0.01817931352837613 9.723326169532092E-4 0.01817931352837613
8.320417209415154E7 9.877709511158354E-4 0.01844841837354161 0.9990122290488842 -0.01844841837354161 0.9990122290488842 -0.01844841837354161 9.877709511158354E-4 0.01844841837354161
8.445983984661816E7 0.0010035309366691495 0.018721513945399604 0.9989964690633307 -0.0187215139453996 0.9989964690633307 -0.0187215139453996 0.0010035309366691495 0.018721513945399604
8.573445738807854E7 0.0010196210081878996 0.01899866126926846 0.9989803789918121 -0.01899866126926846 0.9989803789918121 -0.01899866126926846 0.0010196210081878996 0.01899866126926846
8.702831069744885E7 0.0010360499360479887 0.01927992230723625 0.9989639500639521 -0.019279922307236252 0.9989639500639521 -0.019279922307236252 0.0010360499360479887 0.01927992230723625
8.834169006946853E7 0.001052826837869398 0.019565359967909014 0.9989471731621304 -0.019565359967909014 0.9989471731621304 -0.019565359967909014 0.001052826837869398 0.019565359967909014
8.96748901798321E7 0.001069961190069283 0.019855038116138587 0.9989300388099306 -0.019855038116138587 0.9989300388099306 -0.019855038116138587 0.001069961190069283 0.019855038116138587
9.1028210151304E7 0.0010874628395235763 0.020149021582739363 0.9989125371604763 -0.020149021582739363 0.9989125371604763 -0.020149021582739363 0.0010874628395235763 0.020149021582739363
9.240195362083109E7 0.001105342015336392 0.020447376174203762 0.9988946579846636 -0.020447376174203762 0.9988946579846636 -0.020447376174203762 0.001105342015336392 0.020447376174203762
9.379642880766791E7 0.0011236093407174955 0.020750168682426694 0.9988763906592824 -0.02075016868242669 0.9988763906592824 -0.02075016868242669 0.0011236093407174955 0.020750168682426694
9.521194858253023E7 0.0011422758449690835 0.021057466894449085 0.9988577241550307 -0.02105746689444908 0.9988577241550307 -0.02105746689444908 0.0011422758449690835 0.021057466894449085
9.664883053779216E7 0.0011613529755841534 0.02136933960223137 0.9988386470244158 -0.02136933960223137 0.9988386470244158 -0.02136933960223137 0.0011613529755841534 0.02136933960223137
9.810739705874248E7 0.0011808526104597167 0.02168585661246713 0.9988191473895404 -0.02168585661246713 0.9988191473895404 -0.02168585661246713 0.0011808526104597167 0.02168585661246713
9.958797539591652E7 0.0012007870702291543 0.02200708875644782 0.9987992129297708 -0.02200708875644782 0.9987992129297708 -0.02200708875644782 0.0012007870702291543 0.02200708875644782
1.0109089773851961E8 0.001221169130719 0.022333107899988915 0.9987788308692809 -0.022333107899988915 0.9987788308692809 -0.022333107899988915 0.001221169130719 0.022333107899988915
1.0261650128895843E8 0.001242012035536433 0.022663986953427938 0.9987579879644636 -0.022663986953427938 0.9987579879644636 -0.022663986953427938 0.001242012035536433 0.022663986953427938
1.0416512833849736E8 0.0012633295087947332 0.02299979988170455 0.9987366704912052 -0.02299979988170455 0.9987366704912052 -0.02299979988170455 0.0012633295087947332 0.02299979988170455
1.0573712634405641E8 0.001285135767984898 0.023340621714532606 0.998714864232015 -0.023340621714532606 0.998714864232015 -0.023340621714532606 0.001285135767984898 0.023340621714532606
1.0733284800616828E8 0.0013074455370025372 0.023686528556673785 0.9986925544629974 -0.023686528556673785 0.9986925544629974 -0.023686528556673785 0.0013074455370025372 0.023686528556673785
1.0895265134811176E8 0.0013302740593400327 0.024037597598321907 0.9986697259406598 -0.024037597598321907 0.9986697259406598 -0.024037597598321907 0.0013302740593400327 0.024037597598321907
1.1059689979623953E8 0.0013536371114548054 0.024393907125606695 0.9986463628885454 -0.024393907125606698 0.9986463628885454 -0.024393907125606698 0.0013536371114548054 0.024393907125606695
1.1226596226151802E8 0.001377551016325334 0.024755536531225347 0.9986224489836746 -0.024755536531225343 0.9986224489836746 -0.024755536531225343 0.001377551016325334 0.024755536531225347
1.1396021322229806E8 0.0014020326572072976 0.025122566325209424 0.9985979673427928 -0.025122566325209428 0.9985979673427928 -0.025122566325209428 0.0014020326572072976 0.025122566325209424
1.1568003280833441E8 0.0014270994916029745 0.025495078145834477 0.9985729005083971 -0.02549507814583448 0.9985729005083971 -0.02549507814583448 0.0014270994916029745 0.025495078145834477
1.1742580688607343E8 0.0014527695654576222 0.02587315477067871 0.9985472304345423 -0.02587315477067871 0.9985472304345423 -0.02587315477067871 0.0014527695654576222 0.02587315477067871
1.1919792714522783E8 0.001479061527597245 0.02625688012783681 0.9985209384724028 -0.02625688012783681 0.9985209384724028 -0.02625688012783681 0.001479061527597245 0.02625688012783681
1.2099679118665792E8 0.00150599464442267 0.026646339307294226 0.9984940053555773 -0.026646339307294226 0.9984940053555773 -0.026646339307294226 0.00150599464442267 0.026646339307294226
1.2282280261157903E8 0.0015335888148753703 0.027041618572466414 0.9984664111851246 -0.02704161857246641 0.9984664111851246 -0.02704161857246641 0.0015335888148753703 0.027041618572466414
1.2467637111211549E8 0.001561864585690984 0.027442805371907367 0.998438135414309 -0.027442805371907367 0.998438135414309 -0.027442805371907367 0.001561864585690984 0.027442805371907367
1.265579125632208E8 0.001590843166956811 0.02784998835119027 0.9984091568330432 -0.02784998835119027 0.9984091568330432 -0.02784998835119027 0.001590843166956811 0.02784998835119027
1.284678491159853E8 0.0016205464479900494 0.028263257364963594 0.9983794535520099 -0.028263257364963594 0.9983794535520099 -0.028263257364963594 0.0016205464479900494 0.028263257364963594
1.3040660929235186E8 0.0016509970135537616 0.028682703489184107 0.9983490029864462 -0.028682703489184103 0.9983490029864462 -0.028682703489184103 0.0016509970135537616 0.028682703489184107
1.3237462808126101E8 0.001682218160427927 0.029108419033528513 0.998317781839572 -0.02910841903352852 0.998317781839572 -0.02910841903352852 0.001682218160427927 0.029108419033528513
1.3437234703624701E8 0.001714233914353157 0.02954049755398452 0.9982857660856469 -0.02954049755398452 0.9982857660856469 -0.02954049755398452 0.001714233914353157 0.02954049755398452
1.364002143745067E8 0.0017470690473648683 0.029979033865621205 0.998252930952635 -0.029979033865621205 0.998252930952635 -0.029979033865621205 0.0017470690473648683 0.029979033865621205
1.3845868507746372E8 0.0017807490955359339 0.030424124055538793 0.9982192509044641 -0.030424124055538793 0.9982192509044641 -0.030424124055538793 0.0017807490955359339 0.030424124055538793
1.405482209928499E8 0.0018153003771459316 0.030875865495996205 0.9981846996228539 -0.03087586549599621 0.9981846996228539 -0.03087586549599621 0.0018153003771459316 0.030875865495996205
1.426692909383278E8 0.0018507500112953557 0.03133435685771574 0.9981492499887046 -0.031334356857715746 0.9981492499887046 -0.031334356857715746 0.0018507500112953557 0.03133435685771574
1.4482237080667645E8 0.0018871259369831624 0.03179969812336196 0.9981128740630169 -0.031799698123361954 0.9981128740630169 -0.031799698123361954 0.0018871259369831624 0.03179969812336196
1.4700794367256513E8 0.0019244569326662523 0.032271990601193186 0.9980755430673337 -0.032271990601193186 0.9980755430673337 -0.032271990601193186 0.0019244569326662523 0.032271990601193186
1.492264999009378E8 0.0019627726363195155 0.032751336938882186 0.9980372273636805 -0.032751336938882186 0.9980372273636805 -0.032751336938882186 0.0019627726363195155 0.032751336938882186
1.5147853725703382E8 0.002002103566015211 0.033237841137502964 0.9979978964339846 -0.033237841137502964 0.9979978964339846 -0.033237841137502964 0.002002103566015211 0.033237841137502964
1.5376456101806876E8 0.0020424811410405443 0.03373160856567999 0.9979575188589596 -0.03373160856568 0.9979575188589596 -0.03373160856568 0.0020424811410405443 0.03373160856567999
1.5608508408660066E8 0.0020839377035724266 0.034232745973895966 0.9979160622964275 -0.034232745973895966 0.9979160622964275 -0.034232745973895966 0.0020839377035724266 0.034232745973895966
1.5844062710560706E8 0.0021265065409285092 0.0347413615089536 0.9978734934590714 -0.0347413615089536 0.9978734934590714 -0.0347413615089536 0.0021265065409285092 0.0347413615089536
1.6083171857529896E8 0.0021702219084137487 0.03525756472858725 0.9978297780915864 -0.03525756472858726 0.9978297780915864 -0.03525756472858726 0.0021702219084137487 0.03525756472858725
1.632588949716973E8 0.00221511905278188 0.03578146661621928 0.9977848809472181 -0.03578146661621928 0.9977848809472181 -0.03578146661621928 0.00221511905278188 0.03578146661621928
1.6572270086699936E8 0.0022612342363314223 0.036313179595856455 0.9977387657636687 -0.036313179595856455 0.9977387657636687 -0.036313179595856455 0.0022612342363314223 0.036313179595856455
1.6822368905176118E8 0.002308604761655975 0.03685281754712098 0.997691395238344 -0.03685281754712098 0.997691395238344 -0.03685281754712098 0.002308604761655975 0.03685281754712098
1.7076242065892437E8 0.0023572689970688997 0.037400495820411155 0.9976427310029312 -0.03740049582041116 0.9976427310029312 -0.03740049582041116 0.0023572689970688997 0.037400495820411155
1.7333946528971428E8 0.002407266402722703 0.037956331252186025 0.9975927335972774 -0.037956331252186025 0.9975927335972774 -0.037956331252186025 0.002407266402722703 0.037956331252186025
1.7595540114143828E8 0.0024586375574438156 0.038520442180368646 0.9975413624425562 -0.038520442180368646 0.9975413624425562 -0.038520442180368646 0.0024586375574438156 0.038520442180368646
1.786108151372127E8 0.002511424186303812 0.0390929484598623 0.9974885758136962 -0.039092948459862296 0.9974885758136962 -0.039092948459862296 0.002511424186303812 0.0390929484598623
1.8130630305764765E8 0.0025656691889485877 0.03967397147817416 0.9974343308110515 -0.03967397147817416 0.9974343308110515 -0.03967397147817416 0.0025656691889485877 0.03967397147817416
1.840424696745189E8 0.0026214166687074485 0.04026363417114042 0.9973785833312927 -0.04026363417114042 0.9973785833312927 -0.04026363417114042 0.0026214166687074485 0.04026363417114042
1.8681992888645732E8 0.0026787119625046795 0.04086206103874751 0.9973212880374953 -0.04086206103874751 0.9973212880374953 -0.04086206103874751 0.0026787119625046795 0.04086206103874751
1.8963930385668582E8 0.0027376016715967306 0.04146937816104331 0.997262398328403 -0.04146937816104331 0.997262398328403 -0.04146937816104331 0.0027376016715967306 0.04146937816104331
1.92501227152835E8 0.0027981336931588454 0.04208571321413266 0.9972018663068409 -0.04208571321413266 0.9972018663068409 -0.04208571321413266 0.0027981336931588454 0.04208571321413266
1.9540634088886917E8 0.00286035725274576 0.042711195486251324 0.9971396427472543 -0.042711195486251324 0.9971396427472543 -0.042711195486251324 0.00286035725274576 0.042711195486251324
1.983552968691535E8 0.0029243229376518447 0.04334595589391227 0.9970756770623481 -0.04334595589391227 0.9970756770623481 -0.04334595589391227 0.0029243229376518447 0.04334595589391227
2.0134875673469606E8 0.002990082731197089 0.04399012699811872 0.997009917268803 -0.043990126998118724 0.997009917268803 -0.043990126998118724 0.002990082731197089 0.04399012699811872
2.0438739211159652E8 0.0030576900479661615 0.04464384302063702 0.9969423099520337 -0.04464384302063702 0.9969423099520337 -0.04464384302063702 0.0030576900479661615 0.04464384302063702
2.074718847617352E8 0.003127199770029038 0.04530723986032406 0.9968728002299709 -0.04530723986032406 0.9968728002299709 -0.04530723986032406 0.003127199770029038 0.04530723986032406
2.106029267357361E8 0.003198668284172675 0.045980455109501966 0.9968013317158274 -0.045980455109501966 0.9968013317158274 -0.045980455109501966 0.003198668284172675 0.045980455109501966
2.1378122052823865E8 0.003272153520174572 0.046663628070373935 0.9967278464798253 -0.04666362807037393 0.9967278464798253 -0.04666362807037393 0.003272153520174572 0.046663628070373935
2.1700747923551247E8 0.003347714990150374 0.04735689977147422 0.9966522850098497 -0.04735689977147421 0.9966522850098497 -0.04735689977147421 0.003347714990150374 0.04735689977147422
2.2028242671545094E8 0.003425413829009034 0.04806041298414462 0.9965745861709909 -0.04806041298414462 0.9965745861709909 -0.04806041298414462 0.003425413829009034 0.04806041298414462
2.23606797749979E8 0.0035053128360507035 0.04877431223903055 0.9964946871639493 -0.04877431223903055 0.9964946871639493 -0.04877431223903055 0.0035053128360507035 0.04877431223903055
2.2698133820991236E8 0.0035874765177439927 0.04949874384258779 0.9964125234822558 -0.04949874384258778 0.9964125234822558 -0.04949874384258778 0.0035874765177439927 0.04949874384258779
2.3040680522230446E8 0.003671971131721088 0.05023385589359195 0.9963280288682789 -0.05023385589359195 0.9963280288682789 -0.05023385589359195 0.003671971131721088 0.05023385589359195
2.338839673403185E8 0.0037588647320308593 0.050979798299640534 0.9962411352679691 -0.050979798299640534 0.9962411352679691 -0.050979798299640534 0.0037588647320308593 0.050979798299640534
2.37413604715664E8 0.0038482272156921916 0.051736722793638446 0.9961517727843078 -0.051736722793638446 0.9961517727843078 -0.051736722793638446 0.0038482272156921916 0.051736722793638446
