!Murata Part Number: LQW15AN9N9G00
!These Parameters are Measured in Series Mode Connection
!       o--[Z]--o
!Port1              Port2
!       o-------o
!
!Freq. Start=50[MHz] Stop=20[GHz], 401[Steps]
# Hz S RI R 50
!Freq.(Hz) S11(Real) S11(Imag) S21(Real) S21(Imag) S12(Real) S12(Imag) S22(Real) S22(Imag)
5.0E7 0.0028867135605545203 0.03043992470456122 0.9971132864394455 -0.03043992470456122 0.9971132864394455 -0.03043992470456122 0.0028867135605545203 0.03043992470456122
5.0754570186123446E7 0.0029279805928513563 0.03088400307023433 0.9970720194071486 -0.03088400307023433 0.9970720194071486 -0.03088400307023433 0.0029279805928513563 0.03088400307023433
5.152052789556263E7 0.0029700702521953722 0.031334573902218055 0.9970299297478047 -0.03133457390221805 0.9970299297478047 -0.03133457390221805 0.0029700702521953722 0.031334573902218055
5.229804498202928E7 0.003013003460273171 0.03179173758007334 0.9969869965397269 -0.03179173758007334 0.9969869965397269 -0.03179173758007334 0.003013003460273171 0.03179173758007334
5.308729589274893E7 0.0030568020155559484 0.03225559605979911 0.9969431979844441 -0.03225559605979911 0.9969431979844441 -0.03225559605979911 0.0030568020155559484 0.03225559605979911
5.388845770760058E7 0.003101488624894659 0.03272625288495913 0.9968985113751052 -0.03272625288495913 0.9968985113751052 -0.03272625288495913 0.003101488624894659 0.03272625288495913
5.470171017884717E7 0.0031470869354143817 0.033203813197423264 0.9968529130645857 -0.03320381319742326 0.9968529130645857 -0.03320381319742326 0.0031470869354143817 0.033203813197423264
5.5527235771465644E7 0.0031936215667000617 0.033688383747742905 0.9968063784333 -0.03368838374774291 0.9968063784333 -0.03368838374774291 0.0031936215667000617 0.033688383747742905
5.6365219704085544E7 0.0032411181432684534 0.034180072905181734 0.9967588818567316 -0.03418007290518173 0.9967588818567316 -0.03418007290518173 0.0032411181432684534 0.034180072905181734
5.721584999054556E7 0.0032896033273239257 0.03467899066742314 0.996710396672676 -0.034678990667423144 0.996710396672676 -0.034678990667423144 0.0032896033273239257 0.03467899066742314
5.807931748207712E7 0.003339104851798739 0.035185248669977374 0.9966608951482012 -0.03518524866997737 0.9966608951482012 -0.03518524866997737 0.003339104851798739 0.035185248669977374
5.8955815910124585E7 0.003389651553681325 0.03569896019531076 0.9966103484463186 -0.035698960195310755 0.9966103484463186 -0.035698960195310755 0.003389651553681325 0.03569896019531076
5.984554192981184E7 0.003441273407639129 0.03622024018172035 0.9965587265923607 -0.03622024018172035 0.9965587265923607 -0.03622024018172035 0.003441273407639129 0.03622024018172035
6.074869516406457E7 0.0034940015599456246 0.03674920523197677 0.9965059984400545 -0.036749205231976764 0.9965059984400545 -0.036749205231976764 0.0034940015599456246 0.03674920523197677
6.166547824839868E7 0.0035478683627240817 0.037285973621757736 0.9964521316372761 -0.037285973621757736 0.9964521316372761 -0.037285973621757736 0.0035478683627240817 0.037285973621757736
6.2596096876384385E7 0.0036029074085237225 0.03783066530789442 0.9963970925914762 -0.03783066530789442 0.9963970925914762 -0.03783066530789442 0.0036029074085237225 0.03783066530789442
6.354075984579668E7 0.003659153565246856 0.038383401936451844 0.9963408464347533 -0.038383401936451844 0.9963408464347533 -0.038383401936451844 0.003659153565246856 0.038383401936451844
6.449967910546205E7 0.0037166430114484008 0.038944306850662934 0.9962833569885517 -0.038944306850662934 0.9962833569885517 -0.038944306850662934 0.0037166430114484008 0.038944306850662934
6.547306980281226E7 0.0037754132720320987 0.039513505098735566 0.996224586727968 -0.03951350509873557 0.996224586727968 -0.03951350509873557 0.0037754132720320987 0.039513505098735566
6.646115033215589E7 0.0038355032543704566 0.04009112344154988 0.9961644967456295 -0.04009112344154988 0.9961644967456295 -0.04009112344154988 0.0038355032543704566 0.04009112344154988
6.746414238367817E7 0.003896953284877888 0.04067729036026091 0.9961030467151221 -0.04067729036026091 0.9961030467151221 -0.04067729036026091 0.003896953284877888 0.04067729036026091
6.848227099318038E7 0.003959805146069269 0.04127213606382109 0.9960401948539308 -0.04127213606382108 0.9960401948539308 -0.04127213606382108 0.003959805146069269 0.04127213606382109
6.951576459256999E7 0.004024102114138223 0.04187579249643377 0.9959758978858618 -0.04187579249643377 0.9959758978858618 -0.04187579249643377 0.004024102114138223 0.04187579249643377
7.056485506111258E7 0.004089888997091788 0.04248839334494757 0.9959101110029083 -0.04248839334494756 0.9959101110029083 -0.04248839334494756 0.004089888997091788 0.04248839334494757
7.162977777745734E7 0.004157212173480134 0.04311007404619857 0.9958427878265199 -0.04311007404619858 0.9958427878265199 -0.04311007404619858 0.004157212173480134 0.04311007404619857
7.271077167244768E7 0.00422611963176183 0.04374097179430518 0.9957738803682381 -0.04374097179430518 0.9957738803682381 -0.04374097179430518 0.00422611963176183 0.04374097179430518
7.380807928272885E7 0.004296661010346987 0.04438122554791781 0.9957033389896529 -0.044381225547917805 0.9957033389896529 -0.044381225547917805 0.004296661010346987 0.04438122554791781
7.492194680516452E7 0.004368887638362016 0.04503097603742273 0.995631112361638 -0.04503097603742274 0.995631112361638 -0.04503097603742274 0.004368887638362016 0.04503097603742273
7.60526241520746E7 0.004442852577181248 0.04569036577209692 0.9955571474228188 -0.04569036577209692 0.9955571474228188 -0.04569036577209692 0.004442852577181248 0.04569036577209692
7.720036500730675E7 0.004518610662771823 0.046359539047207854 0.9954813893372281 -0.04635953904720785 0.9954813893372281 -0.04635953904720785 0.004518610662771823 0.046359539047207854
7.836542688315398E7 0.004596218548899255 0.047038641951049114 0.9954037814511006 -0.04703864195104911 0.9954037814511006 -0.04703864195104911 0.004596218548899255 0.047038641951049114
7.954807117813127E7 0.004675734751242061 0.04772782237190014 0.995324265248758 -0.047727822371900146 0.995324265248758 -0.047727822371900146 0.004675734751242061 0.04772782237190014
8.074856323562416E7 0.004757219692464447 0.048427230004895114 0.9952427803075358 -0.048427230004895114 0.9952427803075358 -0.048427230004895114 0.004757219692464447 0.048427230004895114
8.196717240342227E7 0.004840735748296699 0.049137016358783224 0.9951592642517032 -0.04913701635878323 0.9951592642517032 -0.04913701635878323 0.004840735748296699 0.049137016358783224
8.320417209415154E7 0.004926347294673277 0.04985733476256009 0.9950736527053268 -0.04985733476256009 0.9950736527053268 -0.04985733476256009 0.004926347294673277 0.04985733476256009
8.445983984661816E7 0.005014120755978843 0.05058834037194558 0.994985879244021 -0.05058834037194558 0.994985879244021 -0.05058834037194558 0.005014120755978843 0.05058834037194558
8.573445738807854E7 0.005104124654452686 0.05133019017568278 0.9948958753455472 -0.05133019017568278 0.9948958753455472 -0.05133019017568278 0.005104124654452686 0.05133019017568278
8.702831069744885E7 0.005196429660801867 0.052083043001627416 0.994803570339198 -0.052083043001627416 0.994803570339198 -0.052083043001627416 0.005196429660801867 0.052083043001627416
8.834169006946853E7 0.005291108646073304 0.05284705952259586 0.9947088913539266 -0.05284705952259587 0.9947088913539266 -0.05284705952259587 0.005291108646073304 0.05284705952259586
8.96748901798321E7 0.0053882367348348755 0.053622402261936514 0.994611763265165 -0.053622402261936514 0.994611763265165 -0.053622402261936514 0.0053882367348348755 0.053622402261936514
9.1028210151304E7 0.005487891359715075 0.05440923559878618 0.994512108640285 -0.05440923559878618 0.994512108640285 -0.05440923559878618 0.005487891359715075 0.05440923559878618
9.240195362083109E7 0.005590152317350369 0.0552077257729704 0.9944098476826496 -0.0552077257729704 0.9944098476826496 -0.0552077257729704 0.005590152317350369 0.0552077257729704
9.379642880766791E7 0.005695101825788967 0.056018040889504885 0.9943048981742111 -0.056018040889504885 0.9943048981742111 -0.056018040889504885 0.005695101825788967 0.056018040889504885
9.521194858253023E7 0.005802824583398795 0.05684035092265042 0.9941971754166012 -0.056840350922650405 0.9941971754166012 -0.056840350922650405 0.005802824583398795 0.05684035092265042
9.664883053779216E7 0.005913407829327066 0.05767482771947368 0.994086592170673 -0.057674827719473694 0.994086592170673 -0.057674827719473694 0.005913407829327066 0.05767482771947368
9.810739705874248E7 0.006026941405557761 0.0585216450028612 0.9939730585944422 -0.0585216450028612 0.9939730585944422 -0.0585216450028612 0.006026941405557761 0.0585216450028612
9.958797539591652E7 0.006143517820612669 0.05938097837393285 0.9938564821793873 -0.05938097837393284 0.9938564821793873 -0.05938097837393284 0.006143517820612669 0.05938097837393285
1.0109089773851961E8 0.006263232314940642 0.060253005313798166 0.9937367676850595 -0.060253005313798166 0.9937367676850595 -0.060253005313798166 0.006263232314940642 0.060253005313798166
1.0261650128895843E8 0.006386182928038727 0.061137905184596025 0.9936138170719613 -0.061137905184596025 0.9936138170719613 -0.061137905184596025 0.006386182928038727 0.061137905184596025
1.0416512833849736E8 0.00651247056734793 0.06203585922975636 0.9934875294326521 -0.06203585922975636 0.9934875294326521 -0.06203585922975636 0.00651247056734793 0.06203585922975636
1.0573712634405641E8 0.006642199078965143 0.06294705057341958 0.9933578009210348 -0.06294705057341958 0.9933578009210348 -0.06294705057341958 0.006642199078965143 0.06294705057341958
1.0733284800616828E8 0.006775475320211896 0.06387166421894762 0.9932245246797882 -0.06387166421894763 0.9932245246797882 -0.06387166421894763 0.006775475320211896 0.06387166421894762
1.0895265134811176E8 0.006912409234099192 0.0648098870464573 0.9930875907659009 -0.0648098870464573 0.9930875907659009 -0.0648098870464573 0.006912409234099192 0.0648098870464573
1.1059689979623953E8 0.007053113925726843 0.06576190780930549 0.9929468860742732 -0.06576190780930549 0.9929468860742732 -0.06576190780930549 0.007053113925726843 0.06576190780930549
1.1226596226151802E8 0.007197705740654247 0.06672791712945213 0.9928022942593457 -0.06672791712945213 0.9928022942593457 -0.06672791712945213 0.007197705740654247 0.06672791712945213
1.1396021322229806E8 0.007346304345278542 0.06770810749162559 0.9926536956547215 -0.06770810749162558 0.9926536956547215 -0.06770810749162558 0.007346304345278542 0.06770810749162559
1.1568003280833441E8 0.007499032809254774 0.06870267323621247 0.9925009671907452 -0.06870267323621249 0.9925009671907452 -0.06870267323621249 0.007499032809254774 0.06870267323621247
1.1742580688607343E8 0.007656017689991455 0.06971181055079134 0.9923439823100086 -0.06971181055079134 0.9923439823100086 -0.06971181055079134 0.007656017689991455 0.06971181055079134
1.1919792714522783E8 0.007817389119253629 0.07073571746022767 0.9921826108807463 -0.07073571746022767 0.9921826108807463 -0.07073571746022767 0.007817389119253629 0.07073571746022767
1.2099679118665792E8 0.007983280891904282 0.07177459381524552 0.9920167191080957 -0.07177459381524552 0.9920167191080957 -0.07177459381524552 0.007983280891904282 0.07177459381524552
1.2282280261157903E8 0.008153830556813643 0.07282864127938846 0.9918461694431864 -0.07282864127938846 0.9918461694431864 -0.07282864127938846 0.008153830556813643 0.07282864127938846
1.2467637111211549E8 0.008329179509964514 0.07389806331428017 0.9916708204900355 -0.07389806331428016 0.9916708204900355 -0.07389806331428016 0.008329179509964514 0.07389806331428017
1.265579125632208E8 0.008509473089780601 0.0749830651630933 0.9914905269102194 -0.0749830651630933 0.9914905269102194 -0.0749830651630933 0.008509473089780601 0.0749830651630933
1.284678491159853E8 0.008694860674703176 0.07608385383213183 0.9913051393252968 -0.07608385383213183 0.9913051393252968 -0.07608385383213183 0.008694860674703176 0.07608385383213183
1.3040660929235186E8 0.00888549578304029 0.07720063807043083 0.9911145042169596 -0.07720063807043083 0.9911145042169596 -0.07720063807043083 0.00888549578304029 0.07720063807043083
1.3237462808126101E8 0.00908153617511119 0.07833362834727436 0.9909184638248887 -0.07833362834727436 0.9909184638248887 -0.07833362834727436 0.00908153617511119 0.07833362834727436
1.3437234703624701E8 0.009283143957707211 0.07948303682753036 0.9907168560422928 -0.07948303682753036 0.9907168560422928 -0.07948303682753036 0.009283143957707211 0.07948303682753036
1.364002143745067E8 0.009490485690888851 0.08064907734469784 0.990509514309111 -0.08064907734469783 0.990509514309111 -0.08064907734469783 0.009490485690888851 0.08064907734469784
1.3845868507746372E8 0.009703732497137515 0.08183196537156108 0.9902962675028624 -0.08183196537156108 0.9902962675028624 -0.08183196537156108 0.009703732497137515 0.08183196537156108
1.405482209928499E8 0.009923060172878511 0.08303191798834056 0.9900769398271215 -0.08303191798834056 0.9900769398271215 -0.08303191798834056 0.009923060172878511 0.08303191798834056
1.426692909383278E8 0.010148649302390731 0.08424915384822956 0.9898513506976092 -0.08424915384822956 0.9898513506976092 -0.08424915384822956 0.010148649302390731 0.08424915384822956
1.4482237080667645E8 0.010380685374116502 0.08548389314020163 0.9896193146258834 -0.08548389314020162 0.9896193146258834 -0.08548389314020162 0.010380685374116502 0.08548389314020163
1.4700794367256513E8 0.010619358899383816 0.08673635754897194 0.9893806411006164 -0.08673635754897195 0.9893806411006164 -0.08673635754897195 0.010619358899383816 0.08673635754897194
1.492264999009378E8 0.010864865533551111 0.08800677021199187 0.9891351344664489 -0.08800677021199187 0.9891351344664489 -0.08800677021199187 0.010864865533551111 0.08800677021199187
1.5147853725703382E8 0.011117406199583525 0.08929535567335461 0.9888825938004165 -0.08929535567335461 0.9888825938004165 -0.08929535567335461 0.011117406199583525 0.08929535567335461
1.5376456101806876E8 0.01137718721406725 0.09060233983448449 0.9886228127859327 -0.09060233983448447 0.9886228127859327 -0.09060233983448447 0.01137718721406725 0.09060233983448449
1.5608508408660066E8 0.011644420415667362 0.09192794990148181 0.9883555795843327 -0.09192794990148181 0.9883555795843327 -0.09192794990148181 0.011644420415667362 0.09192794990148181
1.5844062710560706E8 0.01191932329603218 0.09327241432899018 0.9880806767039678 -0.09327241432899018 0.9880806767039678 -0.09327241432899018 0.01191932329603218 0.09327241432899018
1.6083171857529896E8 0.012202119133145634 0.09463596276045058 0.9877978808668544 -0.0946359627604506 0.9877978808668544 -0.0946359627604506 0.012202119133145634 0.09463596276045058
1.632588949716973E8 0.012493037127126894 0.09601882596460287 0.987506962872873 -0.09601882596460289 0.987506962872873 -0.09601882596460289 0.012493037127126894 0.09601882596460287
1.6572270086699936E8 0.012792312538474715 0.09742123576809253 0.9872076874615251 -0.09742123576809253 0.9872076874615251 -0.09742123576809253 0.012792312538474715 0.09742123576809253
1.6822368905176118E8 0.013100186828751472 0.09884342498403473 0.9868998131712488 -0.09884342498403471 0.9868998131712488 -0.09884342498403471 0.013100186828751472 0.09884342498403473
1.7076242065892437E8 0.013416907803699987 0.10028562733638634 0.9865830921963001 -0.10028562733638634 0.9865830921963001 -0.10028562733638634 0.013416907803699987 0.10028562733638634
1.7333946528971428E8 0.013742729758783934 0.10174807737997199 0.9862572702412159 -0.10174807737997199 0.9862572702412159 -0.10174807737997199 0.013742729758783934 0.10174807737997199
1.7595540114143828E8 0.01407791362713985 0.10323101041600369 0.98592208637286 -0.10323101041600369 0.98592208637286 -0.10323101041600369 0.01407791362713985 0.10323101041600369
1.786108151372127E8 0.014422727129926692 0.10473466240293286 0.9855772728700732 -0.10473466240293286 0.9855772728700732 -0.10473466240293286 0.014422727129926692 0.10473466240293286
1.8130630305764765E8 0.014777444929056163 0.1062592698624667 0.9852225550709438 -0.1062592698624667 0.9852225550709438 -0.1062592698624667 0.014777444929056163 0.1062592698624667
1.840424696745189E8 0.015142348782283942 0.10780506978057633 0.9848576512177162 -0.10780506978057634 0.9848576512177162 -0.10780506978057634 0.015142348782283942 0.10780506978057633
1.8681992888645732E8 0.015517727700639698 0.10937229950332014 0.9844822722993605 -0.10937229950332014 0.9844822722993605 -0.10937229950332014 0.015517727700639698 0.10937229950332014
1.8963930385668582E8 0.015903878108169872 0.11096119662729928 0.9840961218918302 -0.11096119662729928 0.9840961218918302 -0.11096119662729928 0.015903878108169872 0.11096119662729928
1.92501227152835E8 0.016301104003964922 0.11257199888455856 0.983698895996035 -0.11257199888455856 0.983698895996035 -0.11257199888455856 0.016301104003964922 0.11257199888455856
1.9540634088886917E8 0.01670971712643835 0.11420494402173809 0.9832902828735617 -0.11420494402173806 0.9832902828735617 -0.11420494402173806 0.01670971712643835 0.11420494402173809
1.983552968691535E8 0.01713003711982186 0.11586026967327691 0.9828699628801782 -0.11586026967327694 0.9828699628801782 -0.11586026967327694 0.01713003711982186 0.11586026967327691
2.0134875673469606E8 0.017562391702836844 0.11753821322846333 0.9824376082971633 -0.11753821322846333 0.9824376082971633 -0.11753821322846333 0.017562391702836844 0.11753821322846333
2.0438739211159652E8 0.01800711683949796 0.11923901169211822 0.981992883160502 -0.11923901169211822 0.981992883160502 -0.11923901169211822 0.01800711683949796 0.11923901169211822
2.074718847617352E8 0.018464556912000798 0.12096290153869438 0.9815354430879991 -0.12096290153869438 0.9815354430879991 -0.12096290153869438 0.018464556912000798 0.12096290153869438
2.106029267357361E8 0.018935064895639758 0.12271011855956314 0.9810649351043602 -0.12271011855956315 0.9810649351043602 -0.12271011855956315 0.018935064895639758 0.12271011855956314
2.1378122052823865E8 0.019419002535698227 0.12448089770325649 0.9805809974643017 -0.12448089770325646 0.9805809974643017 -0.12448089770325646 0.019419002535698227 0.12448089770325649
2.1700747923551247E8 0.019916740526246583 0.12627547290842145 0.9800832594737533 -0.12627547290842145 0.9800832594737533 -0.12627547290842145 0.019916740526246583 0.12627547290842145
2.2028242671545094E8 0.020428658690777948 0.12809407692923702 0.9795713413092222 -0.12809407692923702 0.9795713413092222 -0.12809407692923702 0.020428658690777948 0.12809407692923702
2.23606797749979E8 0.020955146164605122 0.12993694115303495 0.9790448538353947 -0.12993694115303495 0.9790448538353947 -0.12993694115303495 0.020955146164605122 0.12993694115303495
2.2698133820991236E8 0.021496601578934543 0.13180429540985616 0.9785033984210656 -0.1318042954098562 0.9785033984210656 -0.1318042954098562 0.021496601578934543 0.13180429540985616
2.3040680522230446E8 0.022053433246525832 0.1336963677736654 0.9779465667534744 -0.1336963677736654 0.9779465667534744 -0.1336963677736654 0.022053433246525832 0.1336963677736654
2.338839673403185E8 0.022626059348836675 0.13561338435493653 0.9773739406511633 -0.13561338435493653 0.9773739406511633 -0.13561338435493653 0.022626059348836675 0.13561338435493653
2.37413604715664E8 0.023214908124543868 0.13755556908431138 0.9767850918754561 -0.13755556908431138 0.9767850918754561 -0.13755556908431138 0.023214908124543868 0.13755556908431138
2.4099650927363476E8 0.02382041805932113 0.13952314348702305 0.9761795819406788 -0.13952314348702305 0.9761795819406788 -0.13952314348702305 0.02382041805932113 0.13952314348702305
2.446334848907889E8 0.024443038076743376 0.14151632644776435 0.9755569619232564 -0.14151632644776432 0.9755569619232564 -0.14151632644776432 0.024443038076743376 0.14151632644776435
