! muRata-GQM/Temperature_compensating/1005_0402/GQM1555C2DR10BB01.s2p
VAR C_pF="0. .10 GQM1555C2DR10BB01"
BEGIN ACDATA
# Hz S RI R 50
% F S[1,1](Complex) S[2,1](Complex) S[1,2](Complex) S[2,2](Complex)
100000000 0.9999603 -0.0062831 0.0000397 0.0062831 0.0000397 0.0062831 0.9999603 -0.0062831
149750000 0.9999109 -0.0094087 0.0000891 0.0094087 0.0000891 0.0094087 0.9999109 -0.0094087
199500000 0.9998419 -0.0125340 0.0001581 0.0125340 0.0001581 0.0125340 0.9998419 -0.0125340
249250000 0.9997532 -0.0156590 0.0002468 0.0156590 0.0002468 0.0156590 0.9997532 -0.0156590
299000000 0.9996449 -0.0187835 0.0003551 0.0187835 0.0003551 0.0187835 0.9996449 -0.0187835
348750000 0.9995169 -0.0219075 0.0004831 0.0219075 0.0004831 0.0219075 0.9995169 -0.0219075
398500000 0.9993693 -0.0250309 0.0006307 0.0250309 0.0006307 0.0250309 0.9993693 -0.0250309
448250000 0.9992019 -0.0281536 0.0007981 0.0281536 0.0007981 0.0281536 0.9992019 -0.0281536
498000000 0.9990150 -0.0312755 0.0009850 0.0312755 0.0009850 0.0312755 0.9990150 -0.0312755
547750000 0.9988083 -0.0343965 0.0011917 0.0343965 0.0011917 0.0343965 0.9988083 -0.0343965
597500000 0.9985820 -0.0375165 0.0014180 0.0375165 0.0014180 0.0375165 0.9985820 -0.0375165
647250000 0.9983360 -0.0406355 0.0016640 0.0406355 0.0016640 0.0406355 0.9983360 -0.0406355
697000000 0.9980703 -0.0437533 0.0019297 0.0437533 0.0019297 0.0437533 0.9980703 -0.0437533
746750000 0.9977850 -0.0468699 0.0022150 0.0468699 0.0022150 0.0468699 0.9977850 -0.0468699
796500000 0.9974800 -0.0499851 0.0025200 0.0499851 0.0025200 0.0499851 0.9974800 -0.0499851
846250000 0.9971553 -0.0530989 0.0028447 0.0530989 0.0028447 0.0530989 0.9971553 -0.0530989
896000000 0.9968110 -0.0562112 0.0031890 0.0562112 0.0031890 0.0562112 0.9968110 -0.0562112
945750000 0.9964470 -0.0593219 0.0035530 0.0593219 0.0035530 0.0593219 0.9964470 -0.0593219
995500000 0.9960632 -0.0624310 0.0039368 0.0624310 0.0039368 0.0624310 0.9960632 -0.0624310
1045250000 0.9956599 -0.0655382 0.0043401 0.0655382 0.0043401 0.0655382 0.9956599 -0.0655382
1095000000 0.9952368 -0.0686436 0.0047632 0.0686436 0.0047632 0.0686436 0.9952368 -0.0686436
1144750000 0.9947940 -0.0717470 0.0052060 0.0717470 0.0052060 0.0717470 0.9947940 -0.0717470
1194500000 0.9943316 -0.0748483 0.0056684 0.0748483 0.0056684 0.0748483 0.9943316 -0.0748483
1244250000 0.9938494 -0.0779475 0.0061506 0.0779475 0.0061506 0.0779475 0.9938494 -0.0779475
1294000000 0.9933476 -0.0810445 0.0066524 0.0810445 0.0066524 0.0810445 0.9933476 -0.0810445
1343750000 0.9928261 -0.0841391 0.0071739 0.0841391 0.0071739 0.0841391 0.9928261 -0.0841391
1393500000 0.9922849 -0.0872314 0.0077151 0.0872314 0.0077151 0.0872314 0.9922849 -0.0872314
1443250000 0.9917239 -0.0903211 0.0082761 0.0903211 0.0082761 0.0903211 0.9917239 -0.0903211
1493000000 0.9911433 -0.0934082 0.0088567 0.0934082 0.0088567 0.0934082 0.9911433 -0.0934082
1542750000 0.9905430 -0.0964926 0.0094570 0.0964926 0.0094570 0.0964926 0.9905430 -0.0964926
1592500000 0.9899229 -0.0995742 0.0100771 0.0995742 0.0100771 0.0995742 0.9899229 -0.0995742
1642250000 0.9892832 -0.1026530 0.0107168 0.1026530 0.0107168 0.1026530 0.9892832 -0.1026530
1692000000 0.9886237 -0.1057287 0.0113763 0.1057287 0.0113763 0.1057287 0.9886237 -0.1057287
1741750000 0.9879446 -0.1088014 0.0120554 0.1088014 0.0120554 0.1088014 0.9879446 -0.1088014
1791500000 0.9872457 -0.1118709 0.0127543 0.1118709 0.0127543 0.1118709 0.9872457 -0.1118709
1841250000 0.9865271 -0.1149372 0.0134729 0.1149372 0.0134729 0.1149372 0.9865271 -0.1149372
1891000000 0.9857887 -0.1180001 0.0142113 0.1180001 0.0142113 0.1180001 0.9857887 -0.1180001
1940750000 0.9850307 -0.1210595 0.0149693 0.1210595 0.0149693 0.1210595 0.9850307 -0.1210595
1990500000 0.9842529 -0.1241154 0.0157471 0.1241154 0.0157471 0.1241154 0.9842529 -0.1241154
2040250000 0.9834553 -0.1271677 0.0165447 0.1271677 0.0165447 0.1271677 0.9834553 -0.1271677
2090000000 0.9826381 -0.1302162 0.0173619 0.1302162 0.0173619 0.1302162 0.9826381 -0.1302162
2139750000 0.9818011 -0.1332609 0.0181989 0.1332609 0.0181989 0.1332609 0.9818011 -0.1332609
2189500000 0.9809444 -0.1363016 0.0190556 0.1363016 0.0190556 0.1363016 0.9809444 -0.1363016
2239250000 0.9800679 -0.1393383 0.0199321 0.1393383 0.0199321 0.1393383 0.9800679 -0.1393383
2289000000 0.9791717 -0.1423708 0.0208283 0.1423708 0.0208283 0.1423708 0.9791717 -0.1423708
2338750000 0.9782558 -0.1453992 0.0217442 0.1453992 0.0217442 0.1453992 0.9782558 -0.1453992
2388500000 0.9773201 -0.1484232 0.0226799 0.1484232 0.0226799 0.1484232 0.9773201 -0.1484232
2438250000 0.9763646 -0.1514427 0.0236354 0.1514427 0.0236354 0.1514427 0.9763646 -0.1514427
2488000000 0.9753894 -0.1544577 0.0246106 0.1544577 0.0246106 0.1544577 0.9753894 -0.1544577
2537750000 0.9743945 -0.1574681 0.0256055 0.1574681 0.0256055 0.1574681 0.9743945 -0.1574681
2587500000 0.9733798 -0.1604738 0.0266202 0.1604738 0.0266202 0.1604738 0.9733798 -0.1604738
2637250000 0.9723453 -0.1634746 0.0276547 0.1634746 0.0276547 0.1634746 0.9723453 -0.1634746
2687000000 0.9712911 -0.1664704 0.0287089 0.1664704 0.0287089 0.1664704 0.9712911 -0.1664704
2736750000 0.9702171 -0.1694612 0.0297829 0.1694612 0.0297829 0.1694612 0.9702171 -0.1694612
2786500000 0.9691234 -0.1724469 0.0308766 0.1724469 0.0308766 0.1724469 0.9691234 -0.1724469
2836250000 0.9680099 -0.1754273 0.0319901 0.1754273 0.0319901 0.1754273 0.9680099 -0.1754273
2886000000 0.9668766 -0.1784024 0.0331234 0.1784024 0.0331234 0.1784024 0.9668766 -0.1784024
2935750000 0.9657236 -0.1813719 0.0342764 0.1813719 0.0342764 0.1813719 0.9657236 -0.1813719
2985500000 0.9645508 -0.1843360 0.0354492 0.1843360 0.0354492 0.1843360 0.9645508 -0.1843360
3035250000 0.9633583 -0.1872943 0.0366417 0.1872943 0.0366417 0.1872943 0.9633583 -0.1872943
3085000000 0.9621460 -0.1902468 0.0378540 0.1902468 0.0378540 0.1902468 0.9621460 -0.1902468
3134750000 0.9609139 -0.1931935 0.0390861 0.1931935 0.0390861 0.1931935 0.9609139 -0.1931935
3184500000 0.9596621 -0.1961342 0.0403379 0.1961342 0.0403379 0.1961342 0.9596621 -0.1961342
3234250000 0.9583905 -0.1990687 0.0416095 0.1990687 0.0416095 0.1990687 0.9583905 -0.1990687
3284000000 0.9570992 -0.2019970 0.0429008 0.2019970 0.0429008 0.2019970 0.9570992 -0.2019970
3333750000 0.9557881 -0.2049190 0.0442119 0.2049190 0.0442119 0.2049190 0.9557881 -0.2049190
3383500000 0.9544573 -0.2078346 0.0455427 0.2078346 0.0455427 0.2078346 0.9544573 -0.2078346
3433250000 0.9531067 -0.2107436 0.0468933 0.2107436 0.0468933 0.2107436 0.9531067 -0.2107436
3483000000 0.9517363 -0.2136460 0.0482637 0.2136460 0.0482637 0.2136460 0.9517363 -0.2136460
3532750000 0.9503462 -0.2165415 0.0496538 0.2165415 0.0496538 0.2165415 0.9503462 -0.2165415
3582500000 0.9489364 -0.2194302 0.0510636 0.2194302 0.0510636 0.2194302 0.9489364 -0.2194302
3632250000 0.9475068 -0.2223119 0.0524932 0.2223119 0.0524932 0.2223119 0.9475068 -0.2223119
3682000000 0.9460575 -0.2251864 0.0539425 0.2251864 0.0539425 0.2251864 0.9460575 -0.2251864
3731750000 0.9445884 -0.2280537 0.0554116 0.2280537 0.0554116 0.2280537 0.9445884 -0.2280537
3781500000 0.9430996 -0.2309137 0.0569004 0.2309137 0.0569004 0.2309137 0.9430996 -0.2309137
3831250000 0.9415911 -0.2337662 0.0584089 0.2337662 0.0584089 0.2337662 0.9415911 -0.2337662
3881000000 0.9400629 -0.2366111 0.0599371 0.2366111 0.0599371 0.2366111 0.9400629 -0.2366111
3930750000 0.9385150 -0.2394483 0.0614850 0.2394483 0.0614850 0.2394483 0.9385150 -0.2394483
3980500000 0.9369474 -0.2422777 0.0630526 0.2422777 0.0630526 0.2422777 0.9369474 -0.2422777
4030250000 0.9353600 -0.2450992 0.0646400 0.2450992 0.0646400 0.2450992 0.9353600 -0.2450992
4080000000 0.9337530 -0.2479125 0.0662470 0.2479125 0.0662470 0.2479125 0.9337530 -0.2479125
4129750000 0.9321263 -0.2507178 0.0678737 0.2507178 0.0678737 0.2507178 0.9321263 -0.2507178
4179500000 0.9304799 -0.2535147 0.0695201 0.2535147 0.0695201 0.2535147 0.9304799 -0.2535147
4229250000 0.9288139 -0.2563031 0.0711861 0.2563031 0.0711861 0.2563031 0.9288139 -0.2563031
4279000000 0.9271282 -0.2590830 0.0728718 0.2590830 0.0728718 0.2590830 0.9271282 -0.2590830
4328750000 0.9254229 -0.2618543 0.0745771 0.2618543 0.0745771 0.2618543 0.9254229 -0.2618543
4378500000 0.9236979 -0.2646168 0.0763021 0.2646168 0.0763021 0.2646168 0.9236979 -0.2646168
4428250000 0.9219533 -0.2673703 0.0780467 0.2673703 0.0780467 0.2673703 0.9219533 -0.2673703
4478000000 0.9201891 -0.2701148 0.0798109 0.2701148 0.0798109 0.2701148 0.9201891 -0.2701148
4527750000 0.9184053 -0.2728501 0.0815947 0.2728501 0.0815947 0.2728501 0.9184053 -0.2728501
4577500000 0.9166019 -0.2755761 0.0833981 0.2755761 0.0833981 0.2755761 0.9166019 -0.2755761
4627250000 0.9147789 -0.2782926 0.0852211 0.2782926 0.0852211 0.2782926 0.9147789 -0.2782926
4677000000 0.9129364 -0.2809997 0.0870636 0.2809997 0.0870636 0.2809997 0.9129364 -0.2809997
4726750000 0.9110744 -0.2836970 0.0889256 0.2836970 0.0889256 0.2836970 0.9110744 -0.2836970
4776500000 0.9091928 -0.2863845 0.0908072 0.2863845 0.0908072 0.2863845 0.9091928 -0.2863845
4826250000 0.9072917 -0.2890620 0.0927083 0.2890620 0.0927083 0.2890620 0.9072917 -0.2890620
4876000000 0.9053711 -0.2917295 0.0946289 0.2917295 0.0946289 0.2917295 0.9053711 -0.2917295
4925750000 0.9034311 -0.2943868 0.0965689 0.2943868 0.0965689 0.2943868 0.9034311 -0.2943868
4975500000 0.9014716 -0.2970337 0.0985284 0.2970337 0.0985284 0.2970337 0.9014716 -0.2970337
5025250000 0.8994927 -0.2996701 0.1005073 0.2996701 0.1005073 0.2996701 0.8994927 -0.2996701
5075000000 0.8974943 -0.3022959 0.1025057 0.3022959 0.1025057 0.3022959 0.8974943 -0.3022959
5124750000 0.8954766 -0.3049110 0.1045234 0.3049110 0.1045234 0.3049110 0.8954766 -0.3049110
5174500000 0.8934395 -0.3075151 0.1065605 0.3075151 0.1065605 0.3075151 0.8934395 -0.3075151
5224250000 0.8913831 -0.3101083 0.1086169 0.3101083 0.1086169 0.3101083 0.8913831 -0.3101083
5274000000 0.8893073 -0.3126902 0.1106927 0.3126902 0.1106927 0.3126902 0.8893073 -0.3126902
5323750000 0.8872122 -0.3152609 0.1127878 0.3152609 0.1127878 0.3152609 0.8872122 -0.3152609
5373500000 0.8850979 -0.3178202 0.1149021 0.3178202 0.1149021 0.3178202 0.8850979 -0.3178202
5423250000 0.8829644 -0.3203678 0.1170356 0.3203678 0.1170356 0.3203678 0.8829644 -0.3203678
5473000000 0.8808116 -0.3229038 0.1191884 0.3229038 0.1191884 0.3229038 0.8808116 -0.3229038
5522750000 0.8786396 -0.3254279 0.1213604 0.3254279 0.1213604 0.3254279 0.8786396 -0.3254279
5572500000 0.8764485 -0.3279399 0.1235515 0.3279399 0.1235515 0.3279399 0.8764485 -0.3279399
5622250000 0.8742383 -0.3304399 0.1257617 0.3304399 0.1257617 0.3304399 0.8742383 -0.3304399
5672000000 0.8720090 -0.3329275 0.1279910 0.3329275 0.1279910 0.3329275 0.8720090 -0.3329275
5721750000 0.8697606 -0.3354027 0.1302394 0.3354027 0.1302394 0.3354027 0.8697606 -0.3354027
5771500000 0.8674932 -0.3378654 0.1325068 0.3378654 0.1325068 0.3378654 0.8674932 -0.3378654
5821250000 0.8652069 -0.3403153 0.1347931 0.3403153 0.1347931 0.3403153 0.8652069 -0.3403153
5871000000 0.8629015 -0.3427523 0.1370985 0.3427523 0.1370985 0.3427523 0.8629015 -0.3427523
5920750000 0.8605773 -0.3451764 0.1394227 0.3451764 0.1394227 0.3451764 0.8605773 -0.3451764
5970500000 0.8582342 -0.3475872 0.1417658 0.3475872 0.1417658 0.3475872 0.8582342 -0.3475872
6020250000 0.8558723 -0.3499848 0.1441277 0.3499848 0.1441277 0.3499848 0.8558723 -0.3499848
6070000000 0.8534916 -0.3523689 0.1465084 0.3523689 0.1465084 0.3523689 0.8534916 -0.3523689
6119750000 0.8510921 -0.3547394 0.1489079 0.3547394 0.1489079 0.3547394 0.8510921 -0.3547394
6169500000 0.8486739 -0.3570962 0.1513261 0.3570962 0.1513261 0.3570962 0.8486739 -0.3570962
6219250000 0.8462371 -0.3594390 0.1537629 0.3594390 0.1537629 0.3594390 0.8462371 -0.3594390
6269000000 0.8437817 -0.3617678 0.1562183 0.3617678 0.1562183 0.3617678 0.8437817 -0.3617678
6318750000 0.8413077 -0.3640824 0.1586923 0.3640824 0.1586923 0.3640824 0.8413077 -0.3640824
6368500000 0.8388152 -0.3663826 0.1611848 0.3663826 0.1611848 0.3663826 0.8388152 -0.3663826
6418250000 0.8363042 -0.3686683 0.1636958 0.3686683 0.1636958 0.3686683 0.8363042 -0.3686683
6468000000 0.8337748 -0.3709393 0.1662252 0.3709393 0.1662252 0.3709393 0.8337748 -0.3709393
6517750000 0.8312271 -0.3731955 0.1687729 0.3731955 0.1687729 0.3731955 0.8312271 -0.3731955
6567500000 0.8286611 -0.3754368 0.1713389 0.3754368 0.1713389 0.3754368 0.8286611 -0.3754368
6617250000 0.8260768 -0.3776629 0.1739232 0.3776629 0.1739232 0.3776629 0.8260768 -0.3776629
6667000000 0.8234743 -0.3798737 0.1765257 0.3798737 0.1765257 0.3798737 0.8234743 -0.3798737
6716750000 0.8208537 -0.3820691 0.1791463 0.3820691 0.1791463 0.3820691 0.8208537 -0.3820691
6766500000 0.8182151 -0.3842489 0.1817849 0.3842489 0.1817849 0.3842489 0.8182151 -0.3842489
6816250000 0.8155584 -0.3864129 0.1844416 0.3864129 0.1844416 0.3864129 0.8155584 -0.3864129
6866000000 0.8128838 -0.3885611 0.1871162 0.3885611 0.1871162 0.3885611 0.8128838 -0.3885611
6915750000 0.8101914 -0.3906931 0.1898086 0.3906931 0.1898086 0.3906931 0.8101914 -0.3906931
6965500000 0.8074811 -0.3928090 0.1925189 0.3928090 0.1925189 0.3928090 0.8074811 -0.3928090
7015250000 0.8047531 -0.3949084 0.1952469 0.3949084 0.1952469 0.3949084 0.8047531 -0.3949084
7065000000 0.8020074 -0.3969913 0.1979926 0.3969913 0.1979926 0.3969913 0.8020074 -0.3969913
7114750000 0.7992441 -0.3990575 0.2007559 0.3990575 0.2007559 0.3990575 0.7992441 -0.3990575
7164500000 0.7964633 -0.4011069 0.2035367 0.4011069 0.2035367 0.4011069 0.7964633 -0.4011069
7214250000 0.7936651 -0.4031392 0.2063349 0.4031392 0.2063349 0.4031392 0.7936651 -0.4031392
7264000000 0.7908495 -0.4051543 0.2091505 0.4051543 0.2091505 0.4051543 0.7908495 -0.4051543
7313750000 0.7880166 -0.4071521 0.2119834 0.4071521 0.2119834 0.4071521 0.7880166 -0.4071521
7363500000 0.7851665 -0.4091324 0.2148335 0.4091324 0.2148335 0.4091324 0.7851665 -0.4091324
7413250000 0.7822992 -0.4110951 0.2177008 0.4110951 0.2177008 0.4110951 0.7822992 -0.4110951
7463000000 0.7794149 -0.4130399 0.2205851 0.4130399 0.2205851 0.4130399 0.7794149 -0.4130399
7512750000 0.7765137 -0.4149667 0.2234863 0.4149667 0.2234863 0.4149667 0.7765137 -0.4149667
7562500000 0.7735956 -0.4168754 0.2264044 0.4168754 0.2264044 0.4168754 0.7735956 -0.4168754
7612250000 0.7706607 -0.4187657 0.2293393 0.4187657 0.2293393 0.4187657 0.7706607 -0.4187657
7662000000 0.7677091 -0.4206376 0.2322909 0.4206376 0.2322909 0.4206376 0.7677091 -0.4206376
7711750000 0.7647410 -0.4224909 0.2352590 0.4224909 0.2352590 0.4224909 0.7647410 -0.4224909
7761500000 0.7617563 -0.4243253 0.2382437 0.4243253 0.2382437 0.4243253 0.7617563 -0.4243253
7811250000 0.7587552 -0.4261409 0.2412448 0.4261409 0.2412448 0.4261409 0.7587552 -0.4261409
7861000000 0.7557379 -0.4279372 0.2442621 0.4279372 0.2442621 0.4279372 0.7557379 -0.4279372
7910750000 0.7527043 -0.4297143 0.2472957 0.4297143 0.2472957 0.4297143 0.7527043 -0.4297143
7960500000 0.7496546 -0.4314720 0.2503454 0.4314720 0.2503454 0.4314720 0.7496546 -0.4314720
8010250000 0.7465889 -0.4332100 0.2534111 0.4332100 0.2534111 0.4332100 0.7465889 -0.4332100
8060000000 0.7435074 -0.4349283 0.2564926 0.4349283 0.2564926 0.4349283 0.7435074 -0.4349283
8109750000 0.7404100 -0.4366267 0.2595900 0.4366267 0.2595900 0.4366267 0.7404100 -0.4366267
8159500000 0.7372970 -0.4383049 0.2627030 0.4383049 0.2627030 0.4383049 0.7372970 -0.4383049
8209250000 0.7341685 -0.4399629 0.2658315 0.4399629 0.2658315 0.4399629 0.7341685 -0.4399629
8259000000 0.7310245 -0.4416005 0.2689755 0.4416005 0.2689755 0.4416005 0.7310245 -0.4416005
8308750000 0.7278651 -0.4432175 0.2721349 0.4432175 0.2721349 0.4432175 0.7278651 -0.4432175
8358500000 0.7246906 -0.4448137 0.2753094 0.4448137 0.2753094 0.4448137 0.7246906 -0.4448137
8408250000 0.7215010 -0.4463891 0.2784990 0.4463891 0.2784990 0.4463891 0.7215010 -0.4463891
8458000000 0.7182965 -0.4479434 0.2817035 0.4479434 0.2817035 0.4479434 0.7182965 -0.4479434
8507750000 0.7150771 -0.4494765 0.2849229 0.4494765 0.2849229 0.4494765 0.7150771 -0.4494765
8557500000 0.7118429 -0.4509881 0.2881571 0.4509881 0.2881571 0.4509881 0.7118429 -0.4509881
8607250000 0.7085943 -0.4524783 0.2914057 0.4524783 0.2914057 0.4524783 0.7085943 -0.4524783
8657000000 0.7053311 -0.4539467 0.2946689 0.4539467 0.2946689 0.4539467 0.7053311 -0.4539467
8706750000 0.7020537 -0.4553933 0.2979463 0.4553933 0.2979463 0.4553933 0.7020537 -0.4553933
8756500000 0.6987621 -0.4568178 0.3012379 0.4568178 0.3012379 0.4568178 0.6987621 -0.4568178
8806250000 0.6954565 -0.4582202 0.3045435 0.4582202 0.3045435 0.4582202 0.6954565 -0.4582202
8856000000 0.6921369 -0.4596002 0.3078631 0.4596002 0.3078631 0.4596002 0.6921369 -0.4596002
8905750000 0.6888036 -0.4609577 0.3111964 0.4609577 0.3111964 0.4609577 0.6888036 -0.4609577
8955500000 0.6854567 -0.4622926 0.3145433 0.4622926 0.3145433 0.4622926 0.6854567 -0.4622926
9005250000 0.6820964 -0.4636047 0.3179036 0.4636047 0.3179036 0.4636047 0.6820964 -0.4636047
9055000000 0.6787227 -0.4648938 0.3212773 0.4648938 0.3212773 0.4648938 0.6787227 -0.4648938
9104750000 0.6753359 -0.4661598 0.3246641 0.4661598 0.3246641 0.4661598 0.6753359 -0.4661598
9154500000 0.6719361 -0.4674025 0.3280639 0.4674025 0.3280639 0.4674025 0.6719361 -0.4674025
9204250000 0.6685234 -0.4686218 0.3314766 0.4686218 0.3314766 0.4686218 0.6685234 -0.4686218
9254000000 0.6650980 -0.4698175 0.3349020 0.4698175 0.3349020 0.4698175 0.6650980 -0.4698175
9303750000 0.6616602 -0.4709895 0.3383398 0.4709895 0.3383398 0.4709895 0.6616602 -0.4709895
9353500000 0.6582099 -0.4721376 0.3417901 0.4721376 0.3417901 0.4721376 0.6582099 -0.4721376
9403250000 0.6547474 -0.4732616 0.3452526 0.4732616 0.3452526 0.4732616 0.6547474 -0.4732616
9453000000 0.6512730 -0.4743615 0.3487270 0.4743615 0.3487270 0.4743615 0.6512730 -0.4743615
9502750000 0.6477866 -0.4754371 0.3522134 0.4754371 0.3522134 0.4754371 0.6477866 -0.4754371
9552500000 0.6442886 -0.4764882 0.3557114 0.4764882 0.3557114 0.4764882 0.6442886 -0.4764882
9602250000 0.6407790 -0.4775147 0.3592210 0.4775147 0.3592210 0.4775147 0.6407790 -0.4775147
9652000000 0.6372581 -0.4785164 0.3627419 0.4785164 0.3627419 0.4785164 0.6372581 -0.4785164
9701750000 0.6337261 -0.4794932 0.3662739 0.4794932 0.3662739 0.4794932 0.6337261 -0.4794932
9751500000 0.6301830 -0.4804450 0.3698170 0.4804450 0.3698170 0.4804450 0.6301830 -0.4804450
9801250000 0.6266292 -0.4813716 0.3733708 0.4813716 0.3733708 0.4813716 0.6266292 -0.4813716
9851000000 0.6230647 -0.4822728 0.3769353 0.4822728 0.3769353 0.4822728 0.6230647 -0.4822728
9900750000 0.6194899 -0.4831486 0.3805101 0.4831486 0.3805101 0.4831486 0.6194899 -0.4831486
9950500000 0.6159048 -0.4839988 0.3840952 0.4839988 0.3840952 0.4839988 0.6159048 -0.4839988
10000250000 0.6123096 -0.4848232 0.3876904 0.4848232 0.3876904 0.4848232 0.6123096 -0.4848232
10050000000 0.6087046 -0.4856217 0.3912954 0.4856217 0.3912954 0.4856217 0.6087046 -0.4856217
10099750000 0.6050900 -0.4863943 0.3949100 0.4863943 0.3949100 0.4863943 0.6050900 -0.4863943
10149500000 0.6014659 -0.4871407 0.3985341 0.4871407 0.3985341 0.4871407 0.6014659 -0.4871407
10199250000 0.5978326 -0.4878608 0.4021674 0.4878608 0.4021674 0.4878608 0.5978326 -0.4878608
10249000000 0.5941902 -0.4885546 0.4058098 0.4885546 0.4058098 0.4885546 0.5941902 -0.4885546
10298750000 0.5905390 -0.4892218 0.4094610 0.4892218 0.4094610 0.4892218 0.5905390 -0.4892218
10348500000 0.5868792 -0.4898624 0.4131208 0.4898624 0.4131208 0.4898624 0.5868792 -0.4898624
10398250000 0.5832109 -0.4904762 0.4167891 0.4904762 0.4167891 0.4904762 0.5832109 -0.4904762
10448000000 0.5795345 -0.4910631 0.4204655 0.4910631 0.4204655 0.4910631 0.5795345 -0.4910631
10497750000 0.5758500 -0.4916229 0.4241500 0.4916229 0.4241500 0.4916229 0.5758500 -0.4916229
