! reference: https://www.microwaves101.com/encyclopedias/snp-format
! Device: HMC1118
! Description: SOI MMIC SPDT Non-Reflective Switch
! Package: LP3DE 16 pin 3x3 mm QFN Plastic Package
! Frequency: 9 kHz - 13.00 GHz
!
! Ports:
! RFC = Port 1
! RF1 = Port 2
! RF2 = Port 3
!
! State: RF1 Selected
!
! Supply Voltage:
! Vdd = +3.3 V
! Vss = -2.5 V
!
! Control Voltages:
! LS = 0 V
! Vctl = +3.3 V
!
! Data: Data was collected using a calibrated network analyzer with AFR software.
! Fixtures were calculated using AFR and fixturing was applied to collect
! this Deembedded S Parameter data of HMC1118.
!
! Note: Analog Devices supplies this data as a sample of measured data at the package pin
! for this product. Your particular data for this product may vary.
! Data was taken at 25 degrees C.
! Analog Devices reserves the right to change this data at anytime.
!
# Hz S dB R 50
10000000 -27.869108 1.9279197 -0.38189247 -0.33050394 -81.955063 -34.127796
-0.39891595 -0.31272164 -28.197519 2.651551 -78.527115 -148.66908
-75.563889 -36.568817 -92.865952 -107.75321 -36.758484 73.327232
20000000 -28.128859 0.46426103 -0.386987 -0.40144929 -86.998352 165.7236
-0.3915855 -0.41016531 -28.088383 0.64914262 -81.324615 -100.10807
-73.797485 -147.92537 -80.097481 81.11422 -41.544853 60.542408
30000000 -28.182211 -0.33713344 -0.3872011 -0.49809608 -83.608833 53.517818
-0.39440522 -0.51251769 -28.13781 -0.51719272 -90.635689 2.5970528
-81.101303 174.34894 -79.808945 -87.237289 -43.677464 49.485748
40000000 -28.149401 -1.3495355 -0.38928571 -0.61589319 -94.856361 24.56739
-0.39621338 -0.63237262 -28.169209 -1.2282417 -80.029335 -54.2911
-78.740204 160.72978 -94.928345 11.535428 -44.817322 42.341946
50000000 -28.182722 -1.3553114 -0.3907927 -0.75995862 -81.269958 87.543777
-0.3992486 -0.76439703 -28.181091 -1.9362835 -80.971382 -68.935402
-82.309334 120.58683 -89.860619 -91.46711 -45.165192 38.798882
60000000 -28.243807 -2.4511375 -0.39553657 -0.89719892 -81.110855 54.478725
-0.39777502 -0.90262198 -28.197227 -2.3064837 -88.319923 -102.20636
-76.50235 28.364262 -88.540138 -20.806389 -45.577065 32.328232
70000000 -28.325607 -2.7070074 -0.39508897 -1.0274358 -77.260834 91.328018
-0.40147659 -1.016976 -28.211517 -2.5040538 -81.854614 32.652962
-76.183098 74.865646 -80.985512 10.65926 -45.429565 31.959295
80000000 -28.319256 -2.9415271 -0.39811161 -1.1582967 -77.756401 100.22378
-0.4052299 -1.1709224 -28.223093 -2.7275136 -93.45015 -127.91241
-76.603828 89.949532 -80.629509 -137.09113 -45.642239 30.809378
90000000 -28.391142 -3.8000386 -0.39867464 -1.2913489 -76.555016 67.339348
-0.40506315 -1.2907393 -28.190201 -2.9909928 -84.100502 39.449806
-74.492249 92.058769 -92.475433 43.388859 -45.617531 30.205961
100000000 -28.40336 -3.5953505 -0.40124041 -1.4174408 -76.971725 89.431908
-0.40619421 -1.4113326 -28.222563 -3.6627159 -89.885201 -128.56389
-76.911583 85.140739 -89.340462 168.46625 -45.725777 27.874329
110000000 -28.421734 -3.7622373 -0.40329722 -1.5420058 -74.482704 80.08342
-0.40736732 -1.5400803 -28.238125 -4.1114655 -86.947952 -61.618458
-75.179672 82.701942 -86.964615 -87.710625 -45.651943 27.932955
! Etc. etc etc....
