! NFZ32BW881HN10
# Hz S RI R 50
!Freq.(Hz) S11(Real) S11(Imag) S21(Real) S21(Imag) S12(Real) S12(Imag) S22(Real) S22(Imag)
1000000.0 0.9837791642116281 0.11605453074179582 0.01622083578837189 -0.1160545307417958 0.01622083578837189 -0.1160545307417958 0.9837791642116281 0.11605453074179582
1020217.5806586457 0.9843731132191847 0.11379837537905332 0.01562688678081523 -0.11379837537905332 0.01562688678081523 -0.11379837537905332 0.9843731132191847 0.11379837537905332
1040843.9118849806 0.9849446185704734 0.11158159503155772 0.015055381429526534 -0.11158159503155772 0.015055381429526534 -0.11158159503155772 0.9849446185704734 0.11158159503155772
1061887.2576265757 0.9854944962304291 0.10940364979221734 0.014505503769570936 -0.10940364979221734 0.014505503769570936 -0.10940364979221734 0.9854944962304291 0.10940364979221734
1083356.0489080292 0.9860235348850607 0.10726399632075156 0.013976465114939265 -0.10726399632075154 0.013976465114939265 -0.10726399632075154 0.9860235348850607 0.10726399632075156
1105258.8872088592 0.9865324966712414 0.10516208861449071 0.013467503328758535 -0.10516208861449071 0.013467503328758535 -0.10516208861449071 0.9865324966712414 0.10516208861449071
1127604.5479096894 0.9870221179013906 0.10309737873105494 0.012977882098609414 -0.10309737873105493 0.012977882098609414 -0.10309737873105493 0.9870221179013906 0.10309737873105494
1150401.9838081095 0.9874931097817192 0.10106931746502805 0.01250689021828076 -0.10106931746502805 0.01250689021828076 -0.10106931746502805 0.9874931097817192 0.10106931746502805
1173660.328705616 0.9879461591228491 0.09907735498069613 0.012053840877150786 -0.09907735498069613 0.012053840877150786 -0.09907735498069613 0.9879461591228491 0.09907735498069613
1197388.9010670746 0.988381929041748 0.0971209414028627 0.011618070958251974 -0.0971209414028627 0.011618070958251974 -0.0971209414028627 0.988381929041748 0.0971209414028627
1221597.2077541656 0.988801059654044 0.09519952736770541 0.011198940345955949 -0.0951995273677054 0.011198940345955949 -0.0951995273677054 0.988801059654044 0.09519952736770541
1246294.947834312 0.9892041687559006 0.09331256453557453 0.010795831244099384 -0.09331256453557454 0.010795831244099384 -0.09331256453557454 0.9892041687559006 0.09331256453557453
1271492.016466615 0.9895918524947322 0.09145950606758166 0.010408147505267728 -0.09145950606758166 0.010408147505267728 -0.09145950606758166 0.9895918524947322 0.09145950606758166
1297198.5088663532 0.9899646860281451 0.08963980706776137 0.01003531397185487 -0.08963980706776137 0.01003531397185487 -0.08963980706776137 0.9899646860281451 0.08963980706776137
1323424.7243496338 0.9903232241705722 0.08785292499253454 0.00967677582942773 -0.08785292499253455 0.00967677582942773 -0.08785292499253455 0.9903232241705722 0.08785292499253454
1350181.1704598186 0.9906680020271595 0.0860983200291346 0.009331997972840525 -0.0860983200291346 0.009331997972840525 -0.0860983200291346 0.9906680020271595 0.0860983200291346
1377478.5671773748 0.9909995356145322 0.08437545544460276 0.009000464385467814 -0.08437545544460276 0.009000464385467814 -0.08437545544460276 0.9909995356145322 0.08437545544460276
1405327.8512148394 0.9913183224681454 0.08268379790689419 0.008681677531854719 -0.08268379790689419 0.008681677531854719 -0.08268379790689419 0.9913183224681454 0.08268379790689419
1433740.1803986167 0.9916248422359816 0.08102281777957826 0.00837515776401845 -0.08102281777957827 0.00837515776401845 -0.08102281777957827 0.9916248422359816 0.08102281777957826
1462726.9381393674 0.9919195572584234 0.07939198939155617 0.008080442741576564 -0.07939198939155616 0.008080442741576564 -0.07939198939155616 0.9919195572584234 0.07939198939155617
1492299.737992774 0.9922029131341761 0.07779079128316126 0.007797086865823781 -0.07779079128316127 0.007797086865823781 -0.07779079128316127 0.9922029131341761 0.07779079128316126
1522470.428312519 0.9924753392721698 0.07621870642994885 0.007524660727830241 -0.07621870642994885 0.007524660727830241 -0.07621870642994885 0.9924753392721698 0.07621870642994885
1553251.0969973304 0.9927372494294098 0.07467522244542683 0.0072627505705902635 -0.07467522244542683 0.0072627505705902635 -0.07467522244542683 0.9927372494294098 0.07467522244542683
1584654.076334004 0.9929890422347896 0.07315983176392317 0.007010957765210383 -0.07315983176392317 0.007010957765210383 -0.07315983176392317 0.9929890422347896 0.07315983176392317
1616691.9479383389 0.9932311016989104 0.07167203180473178 0.006768898301089593 -0.07167203180473178 0.006768898301089593 -0.07167203180473178 0.9932311016989104 0.07167203180473178
1649377.5477959653 0.9934637977099875 0.07021132511862807 0.006536202290012595 -0.07021132511862807 0.006536202290012595 -0.07021132511862807 0.9934637977099875 0.07021132511862807
1682723.9714050898 0.9936874865159524 0.06877721951779214 0.0063125134840475595 -0.06877721951779214 0.0063125134840475595 -0.06877721951779214 0.9936874865159524 0.06877721951779214
1716744.5790232092 0.9939025111928856 0.06736922819013068 0.006097488807114554 -0.06736922819013068 0.006097488807114554 -0.06736922819013068 0.9939025111928856 0.06736922819013068
1751453.001019904 0.9941092020999321 0.06598686979894 0.005890797900067874 -0.06598686979894 0.005890797900067874 -0.06598686979894 0.9941092020999321 0.06598686979894
1786863.143337851 0.9943078773208848 0.06462966856880682 0.005692122679115306 -0.06462966856880681 0.005692122679115306 -0.06462966856880681 0.9943078773208848 0.06462966856880682
1822989.1930642454 0.9944988430926202 0.06329715435859899 0.005501156907379975 -0.06329715435859899 0.005501156907379975 -0.06329715435859899 0.9944988430926202 0.06329715435859899
1859845.6241148617 0.9946823942206049 0.06198886272235638 0.005317605779395016 -0.06198886272235638 0.005317605779395016 -0.06198886272235638 0.9946823942206049 0.06198886272235638
1897447.2030330333 0.9948588144816918 0.060704334958849936 0.0051411855183082 -0.060704334958849936 0.0051411855183082 -0.060704334958849936 0.9948588144816918 0.060704334958849936
1935808.994905876 0.9950283770144377 0.05944311815053807 0.004971622985562366 -0.05944311815053807 0.004971622985562366 -0.05944311815053807 0.9950283770144377 0.05944311815053807
1974946.3694001175 0.9951913446971918 0.058204765192612126 0.004808655302808235 -0.058204765192612126 0.004808655302808235 -0.058204765192612126 0.9951913446971918 0.058204765192612126
2014875.0069199642 0.9953479705142019 0.05698883481278493 0.00465202948579815 -0.05698883481278493 0.00465202948579815 -0.05698883481278493 0.9953479705142019 0.05698883481278493
2055610.904889458 0.9954984979099969 0.05579489158244296 0.004501502090003187 -0.05579489158244296 0.004501502090003187 -0.05579489158244296 0.9954984979099969 0.05579489158244296
2097170.3841618528 0.995643161132309 0.0546225059197486 0.004356838867691002 -0.05462250591974861 0.004356838867691002 -0.05462250591974861 0.995643161132309 0.0546225059197486
2139570.0955585684 0.9957821855638019 0.05347125408524722 0.004217814436198078 -0.053471254085247215 0.004217814436198078 -0.053471254085247215 0.9957821855638019 0.05347125408524722
2182827.0265403506 0.9959157880428724 0.05234071817050324 0.004084211957127468 -0.05234071817050324 0.004084211957127468 -0.05234071817050324 0.9959157880428724 0.05234071817050324
2226958.508013302 0.9960441771737985 0.051230486080260824 0.0039558228262015285 -0.05123048608026081 0.0039558228262015285 -0.05123048608026081 0.9960441771737985 0.051230486080260824
2271982.2212725184 0.9961675536265017 0.05014015150859577 0.0038324463734983605 -0.05014015150859576 0.0038324463734983605 -0.05014015150859576 0.9961675536265017 0.05014015150859577
2317916.205086105 0.996286110426199 0.04906931390950068 0.0037138895738010446 -0.049069313909500666 0.0037138895738010446 -0.049069313909500666 0.996286110426199 0.04906931390950068
2364778.8629224156 0.9964000332332105 0.04801757846231813 0.003599966766789385 -0.04801757846231813 0.003599966766789385 -0.04801757846231813 0.9964000332332105 0.04801757846231813
2412588.9703234104 0.9965095006131945 0.04698455603241424 0.0034904993868055726 -0.046984556032414256 0.0034904993868055726 -0.046984556032414256 0.9965095006131945 0.04698455603241424
2461365.682427083 0.9966146842980727 0.04596986312746123 0.0033853157019272918 -0.04596986312746122 0.0033853157019272918 -0.04596986312746122 0.9966146842980727 0.04596986312746123
2511128.5416419753 0.9967157494379156 0.04497312184967622 0.0032842505620843876 -0.04497312184967623 0.0032842505620843876 -0.04497312184967623 0.9967157494379156 0.04497312184967622
2561897.48547685 0.9968128548440415 0.043993959844343164 0.003187145155958385 -0.04399395984434316 0.003187145155958385 -0.04399395984434316 0.9968128548440415 0.043993959844343164
2613692.85452866 0.9969061532235924 0.0430320102449241 0.0030938467764076174 -0.0430320102449241 0.0030938467764076174 -0.0430320102449241 0.9969061532235924 0.0430320102449241
2666535.4006320196 0.9969957914058353 0.04208691161504879 0.0030042085941646072 -0.04208691161504879 0.0030042085941646072 -0.04208691161504879 0.9969957914058353 0.04208691161504879
2720446.295173432 0.9970819105604434 0.04115830788765301 0.0029180894395565335 -0.04115830788765302 0.0029180894395565335 -0.04115830788765302 0.9970819105604434 0.04115830788765301
2775447.137573615 0.9971646464079961 0.04024584830151966 0.0028353535920040136 -0.040245848301519664 0.0028353535920040136 -0.040245848301519664 0.9971646464079961 0.04024584830151966
2831559.963941318 0.997244129422942 0.039349187335460147 0.0027558705770580672 -0.039349187335460147 0.0027558705770580672 -0.039349187335460147 0.997244129422942 0.039349187335460147
2888807.255902094 0.99732048502926 0.03846798464035997 0.0026795149707400895 -0.03846798464035998 0.0026795149707400895 -0.03846798464035998 0.99732048502926 0.03846798464035997
2947211.9496055758 0.9973938337890456 0.03760190496929642 0.0026061662109544636 -0.03760190496929642 0.0026061662109544636 -0.03760190496929642 0.9973938337890456 0.03760190496929642
3006797.4449148513 0.9974642915842514 0.036750618105924004 0.002535708415748735 -0.036750618105924 0.002535708415748735 -0.036750618105924 0.9974642915842514 0.036750618105924004
3067587.6147816274 0.9975319697917987 0.03591379879130987 0.0024680302082013455 -0.035913798791309855 0.0024680302082013455 -0.035913798791309855 0.9975319697917987 0.03591379879130987
3129606.8148109377 0.9975969754522777 0.035091126649390104 0.002403024547722352 -0.0350911266493901 0.002403024547722352 -0.0350911266493901 0.9975969754522777 0.035091126649390104
3192879.893019226 0.9976594114324421 0.03428228611120527 0.002340588567557724 -0.03428228611120527 0.002340588567557724 -0.03428228611120527 0.9976594114324421 0.03428228611120527
3257432.1997897103 0.9977193765817065 0.03348696633806374 0.0022806234182933187 -0.03348696633806374 0.0022806234182933187 -0.03348696633806374 0.9977193765817065 0.03348696633806374
3323289.598029029 0.9977769658828402 0.032704861143770796 0.0022230341171599346 -0.032704861143770796 0.0022230341171599346 -0.032704861143770796 0.9977769658828402 0.032704861143770796
3390478.4735292196 0.9978322705970538 0.03193566891605176 0.00216772940294623 -0.03193566891605176 0.00216772940294623 -0.03193566891605176 0.9978322705970538 0.03193566891605176
3459025.745539199 0.9978853784036684 0.03117909253728853 0.002114621596331663 -0.031179092537288525 0.002114621596331663 -0.031179092537288525 0.9978853784036684 0.03117909253728853
3528958.8775499705 0.997936373534543 0.0304348393046801 0.0020636264654569103 -0.0304348393046801 0.0020636264654569103 -0.0304348393046801 0.997936373534543 0.0304348393046801
3600305.8882978815 0.9979853369034454 0.029702620849929882 0.002014663096554529 -0.029702620849929882 0.002014663096554529 -0.029702620849929882 0.9979853369034454 0.029702620849929882
3673095.3629903416 0.9980323462305322 0.028982153058554415 0.0019676537694678165 -0.028982153058554408 0.0019676537694678165 -0.028982153058554408 0.9980323462305322 0.028982153058554415
3747356.4647584967 0.9980774761621088 0.028273155988901632 0.0019225238378910367 -0.028273155988901632 0.0019225238378910367 -0.028273155988901632 0.9980774761621088 0.028273155988901632
3823118.9463414503 0.9981207983858307 0.027575353790959486 0.0018792016141692541 -0.02757535379095948 0.0018792016141692541 -0.02757535379095948 0.9981207983858307 0.027575353790959486
3900413.1620067055 0.9981623817414988 0.026888474625029305 0.0018376182585010368 -0.026888474625029316 0.0018376182585010368 -0.026888474625029316 0.9981623817414988 0.026888474625029305
3979270.0797116193 0.9982022923276076 0.02621225058033293 0.0017977076723922568 -0.026212250580332927 0.0017977076723922568 -0.026212250580332927 0.9982022923276076 0.02621225058033293
4059721.293510725 0.9982405936037859 0.025546417593616002 0.0017594063962140744 -0.02554641759361601 0.0017594063962140744 -0.02554641759361601 0.9982405936037859 0.025546417593616002
4141799.0362139 0.9982773464892771 0.024890715367805388 0.0017226535107229288 -0.024890715367805388 0.0017226535107229288 -0.024890715367805388 0.9982773464892771 0.024890715367805388
4225536.192300457 0.9983126094575947 0.02424488729077288 0.0016873905424050922 -0.024244887290772874 0.0016873905424050922 -0.024244887290772874 0.9983126094575947 0.02424488729077288
4310966.311094318 0.9983464386274871 0.023608680354253387 0.0016535613725128892 -0.023608680354253387 0.0016535613725128892 -0.023608680354253387 0.9983464386274871 0.023608680354253387
4398123.620205573 0.9983788878503359 0.02298184507296061 0.00162111214966418 -0.022981845072960607 0.00162111214966418 -0.022981845072960607 0.9983788878503359 0.02298184507296061
4487043.0392437745 0.9984100087941187 0.0223641354039396 0.0015899912058811015 -0.022364135403939597 0.0015899912058811015 -0.022364135403939597 0.9984100087941187 0.0223641354039396
4577760.193808502 0.9984398510240515 0.02175530866619151 0.0015601489759483633 -0.02175530866619151 0.0015601489759483633 -0.02175530866619151 0.9984398510240515 0.02175530866619151
4670311.429762763 0.9984684620800244 0.02115512546060181 0.0015315379199755369 -0.02115512546060182 0.0015315379199755369 -0.02115512546060182 0.9984684620800244 0.02115512546060181
4764733.827794987 0.9984958875509481 0.02056334959020049 0.001504112449051946 -0.02056334959020049 0.001504112449051946 -0.02056334959020049 0.9984958875509481 0.02056334959020049
4861065.218275411 0.9985221711461132 0.019979747980778728 0.001477828853886678 -0.019979747980778728 0.001477828853886678 -0.019979747980778728 0.9985221711461132 0.019979747980778728
4959344.196412832 0.9985473547636697 0.019404090601884118 0.001452645236330183 -0.01940409060188412 0.001452645236330183 -0.01940409060188412 0.9985473547636697 0.019404090601884118
5059610.137717796 0.9985714785563223 0.018836150388213176 0.0014285214436776912 -0.018836150388213166 0.0014285214436776912 -0.018836150388213166 0.9985714785563223 0.018836150388213176
5161903.213778406 0.9985945809943416 0.018275703161417543 0.0014054190056584023 -0.01827570316141755 0.0014054190056584023 -0.01827570316141755 0.9985945809943416 0.018275703161417543
5266264.4083550945 0.998616698925982 0.017722527552337605 0.0013833010740179604 -0.017722527552337605 0.0013833010740179604 -0.017722527552337605 0.998616698925982 0.017722527552337605
5372735.53380077 0.9986378676353946 0.01717640492367464 0.0013621323646052746 -0.01717640492367464 0.0013621323646052746 -0.01717640492367464 0.9986378676353946 0.01717640492367464
5481359.247812959 0.9986581208981219 0.016637119293111093 0.001341879101878127 -0.016637119293111093 0.001341879101878127 -0.016637119293111093 0.9986581208981219 0.016637119293111093
5592179.070524632 0.9986774910342545 0.016104457256885706 0.00132250896574536 -0.016104457256885713 0.00132250896574536 -0.016104457256885713 0.9986774910342545 0.016104457256885706
5705239.401940555 0.9986960089593333 0.01557820791382886 0.0013039910406666155 -0.01557820791382886 0.0013039910406666155 -0.01557820791382886 0.9986960089593333 0.01557820791382886
5820585.5397261735 0.9987137042330663 0.015058162789861223 0.0012862957669338055 -0.01505816278986122 0.0012862957669338055 -0.01505816278986122 0.9987137042330663 0.015058162789861223
5938263.697356135 0.9987306051059385 0.014544115762957699 0.0012693948940615003 -0.014544115762957704 0.0012693948940615003 -0.014544115762957704 0.9987306051059385 0.014544115762957699
6058321.022629741 0.9987467385637836 0.01403586298857637 0.0012532614362164123 -0.01403586298857636 0.0012532614362164123 -0.01403586298857636 0.9987467385637836 0.01403586298857637
6180805.616560728 0.998762130370381 0.013533202825551071 0.0012378696296190563 -0.013533202825551075 0.0012378696296190563 -0.013533202825551075 0.998762130370381 0.013533202825551071
6305766.552648956 0.9987768051081466 0.013035935762445095 0.0012231948918534606 -0.013035935762445085 0.0012231948918534606 -0.013035935762445085 0.9987768051081466 0.013035935762445095
6433253.896541728 0.9987907862169765 0.012543864344361165 0.001209213783023553 -0.012543864344361163 0.001209213783023553 -0.012543864344361163 0.9987907862169765 0.012543864344361165
6563318.726092606 0.9988040960313023 0.012056793100203246 0.0011959039686975073 -0.012056793100203252 0.0011959039686975073 -0.012056793100203252 0.9988040960313023 0.012056793100203246
6696013.151825785 0.9988167558154162 0.01157452847038299 0.0011832441845839356 -0.011574528470382988 0.0011832441845839356 -0.011574528470382988 0.9988167558154162 0.01157452847038299
6831390.3378141755 0.9988287857971135 0.011096878734963561 0.0011712142028862968 -0.011096878734963553 0.0011712142028862968 -0.011096878734963553 0.9988287857971135 0.011096878734963561
6969504.522979628 0.9988402051997156 0.010623653942232426 0.001159794800284411 -0.010623653942232436 0.001159794800284411 -0.010623653942232436 0.9988402051997156 0.010623653942232426
7110411.042823766 0.9988510322725057 0.010154665837693649 0.001148967727494292 -0.010154665837693632 0.001148967727494292 -0.010154665837693632 0.9988510322725057 0.010154665837693649
7254166.351598182 0.9988612843196402 0.009689727793468982 0.0011387156803598921 -0.009689727793468985 0.0011387156803598921 -0.009689727793468985 0.9988612843196402 0.009689727793468982
7400828.044922853 0.9988709777275673 0.009228654738097647 0.001129022272432585 -0.009228654738097641 0.001129022272432585 -0.009228654738097641 0.9988709777275673 0.009228654738097647
7550454.882861849 0.9988801279910036 0.008771263086721754 0.0011198720089964501 -0.008771263086721751 0.0011198720089964501 -0.008771263086721751 0.9988801279910036 0.008771263086721754
7703106.813465575 0.9988887497375005 0.00831737067164605 0.001111250262499573 -0.008317370671646045 0.001111250262499573 -0.008317370671646045 0.9988887497375005 0.00831737067164605
7858844.9967889795 0.9988968567506464 0.007866796673257927 0.0011031432493536625 -0.007866796673257941 0.0011031432493536625 -0.007866796673257941 0.9988968567506464 0.007866796673257927
8017731.829395356 0.9989044619919337 0.007419361551294687 0.00109553800806638 -0.007419361551294697 0.00109553800806638 -0.007419361551294697 0.9989044619919337 0.007419361551294687
8179830.96935555 0.9989115776213272 0.006974886976443235 0.0010884223786727515 -0.006974886976443235 0.0010884223786727515 -0.006974886976443235 0.9989115776213272 0.006974886976443235
8345207.361752584 0.998918215016566 0.006533195762257822 0.0010817849834339995 -0.006533195762257822 0.0010817849834339995 -0.006533195762257822 0.998918215016566 0.006533195762257822
8513927.264701942 0.998924384791226 0.00609411179738045 0.0010756152087740844 -0.006094111797380458 0.0010756152087740844 -0.006094111797380458 0.998924384791226 0.00609411179738045
