!Murata Part Number: LQW15CA2R0K00
!These Parameters are Measured in Series Mode Connection
!       o--[Z]--o
!Port1              Port2
!       o-------o
!
!Freq. Start=10[MHz] Stop=20[GHz], 401[Steps]
# Hz S RI R 50
!Freq.(Hz) S11(Real) S11(Imag) S21(Real) S21(Imag) S12(Real) S12(Imag) S22(Real) S22(Imag)
1.0E7 0.6352721391633032 0.44371050338661305 0.3647278608366969 -0.44371050338661305 0.3647278608366969 -0.44371050338661305 0.6352721391633032 0.44371050338661305
1.0191839480455115E7 0.6431467571757761 0.44152291662438825 0.356853242824224 -0.44152291662438825 0.356853242824224 -0.44152291662438825 0.6431467571757761 0.44152291662438825
1.0387359199536363E7 0.6509490479778468 0.43921558197692123 0.34905095202215314 -0.43921558197692123 0.34905095202215314 -0.43921558197692123 0.6509490479778468 0.43921558197692123
1.0586629758750336E7 0.6586753583770081 0.43679135297775123 0.3413246416229918 -0.4367913529777512 0.3413246416229918 -0.4367913529777512 0.6586753583770081 0.43679135297775123
1.0789723114019271E7 0.6663221771607142 0.43425321410872625 0.33367782283928576 -0.43425321410872625 0.33367782283928576 -0.43425321410872625 0.6663221771607142 0.43425321410872625
1.0996712601664074E7 0.6738861412785325 0.431604272765898 0.3261138587214675 -0.43160427276589797 0.3261138587214675 -0.43160427276589797 0.6738861412785325 0.431604272765898
1.1207672964885822E7 0.6813640414988025 0.42884775086388255 0.31863595850119747 -0.4288477508638825 0.31863595850119747 -0.4288477508638825 0.6813640414988025 0.42884775086388255
1.1422680380755277E7 0.6887528275126147 0.42598697611885017 0.3112471724873855 -0.42598697611885017 0.3112471724873855 -0.42598697611885017 0.6887528275126147 0.42598697611885017
1.1641812487720173E7 0.6960496124616348 0.4230253730528335 0.30395038753836506 -0.42302537305283344 0.30395038753836506 -0.42302537305283344 0.6960496124616348 0.4230253730528335
1.1865148413640184E7 0.7032516768702697 0.4199664537641545 0.2967483231297304 -0.4199664537641545 0.2967483231297304 -0.4199664537641545 0.7032516768702697 0.4199664537641545
1.2092768804359745E7 0.7103564719668574 0.4168138085104301 0.28964352803314264 -0.4168138085104301 0.28964352803314264 -0.4168138085104301 0.7103564719668574 0.4168138085104301
1.2324755852828966E7 0.7173616223829175 0.4135710961518094 0.2826383776170825 -0.4135710961518094 0.2826383776170825 -0.4135710961518094 0.7173616223829175 0.4135710961518094
1.2561193328783253E7 0.7242649282239213 0.41024203450280233 0.2757350717760787 -0.41024203450280233 0.2757350717760787 -0.41024203450280233 0.7242649282239213 0.41024203450280233
1.280216660899226E7 0.7310643665095162 0.4068303906412844 0.26893563349048377 -0.4068303906412844 0.26893563349048377 -0.4068303906412844 0.7310643665095162 0.4068303906412844
1.3047762708089152E7 0.7377580919855763 0.40333997122300336 0.26224190801442376 -0.40333997122300336 0.26224190801442376 -0.40333997122300336 0.7377580919855763 0.40333997122300336
1.3298070309991302E7 0.7443444373147975 0.39977461284918153 0.25565556268520234 -0.39977461284918153 0.25565556268520234 -0.39977461284918153 0.7443444373147975 0.39977461284918153
1.3553179799923737E7 0.7508219126567724 0.3961381725336369 0.2491780873432276 -0.3961381725336369 0.2491780873432276 -0.3961381725336369 0.7508219126567724 0.3961381725336369
1.3813183297056952E7 0.7571892046524857 0.39243451831423837 0.24281079534751418 -0.39243451831423837 0.24281079534751418 -0.39243451831423837 0.7571892046524857 0.39243451831423837
1.4078174687770821E7 0.763445174831958 0.38866752005153155 0.236554825168042 -0.38866752005153155 0.236554825168042 -0.38866752005153155 0.763445174831958 0.38866752005153155
1.4348249659556655E7 0.7695888574672547 0.38484104045502215 0.2304111425327453 -0.3848410404550221 0.2304111425327453 -0.3848410404550221 0.7695888574672547 0.38484104045502215
1.4623505735569622E7 0.7756194568962702 0.3809589263749628 0.22438054310372987 -0.3809589263749628 0.22438054310372987 -0.3809589263749628 0.7756194568962702 0.3809589263749628
1.490404230984403E7 0.781536344345536 0.37702500039457043 0.21846365565446402 -0.37702500039457043 0.21846365565446402 -0.37702500039457043 0.781536344345536 0.37702500039457043
1.5189960683184188E7 0.7873390542827987 0.3730430527544664 0.21266094571720123 -0.3730430527544664 0.21266094571720123 -0.3730430527544664 0.7873390542827987 0.3730430527544664
1.548136409974376E7 0.793027280332209 0.36901683363783955 0.20697271966779096 -0.36901683363783955 0.20697271966779096 -0.36901683363783955 0.793027280332209 0.36901683363783955
1.5778357784306893E7 0.7986008707867139 0.3649500458413888 0.20139912921328595 -0.3649500458413888 0.20139912921328595 -0.3649500458413888 0.7986008707867139 0.3649500458413888
1.608104898028453E7 0.8040598237535763 0.3608463378536162 0.1959401762464238 -0.3608463378536162 0.1959401762464238 -0.3608463378536162 0.8040598237535763 0.3608463378536162
1.638954698843964E7 0.8094042819699242 0.3567092973584914 0.19059571803007577 -0.3567092973584914 0.19059571803007577 -0.3567092973584914 0.8094042819699242 0.3567092973584914
1.6703963206355339E7 0.8146345273258362 0.3525424451789958 0.18536547267416387 -0.3525424451789958 0.18536547267416387 -0.3525424451789958 0.8146345273258362 0.3525424451789958
1.7024411168660197E7 0.8197509751327114 0.3483492296715663 0.18024902486728847 -0.3483492296715663 0.18024902486728847 -0.3483492296715663 0.8197509751327114 0.3483492296715663
1.7351006588025205E7 0.8247541681745957 0.34413302157908127 0.1752458318254042 -0.34413302157908127 0.1752458318254042 -0.34413302157908127 0.8247541681745957 0.34413302157908127
1.768386739694721E7 0.8296447705797253 0.3398971093467497 0.17035522942027476 -0.3398971093467497 0.17035522942027476 -0.3398971093467497 0.8296447705797253 0.3398971093467497
1.8023113790333964E7 0.8344235615488759 0.33564469490213983 0.16557643845112407 -0.33564469490213983 0.16557643845112407 -0.33564469490213983 0.8344235615488759 0.33564469490213983
1.836886826890608E7 0.8390914289761424 0.3313788898976302 0.1609085710238575 -0.33137888989763015 0.1609085710238575 -0.33137888989763015 0.8390914289761424 0.3313788898976302
1.872125568343162E7 0.8436493629966011 0.3271027124107906 0.15635063700339893 -0.32710271241079064 0.15635063700339893 -0.32710271241079064 0.8436493629966011 0.3271027124107906
1.9080403279809315E7 0.8480984494939166 0.3228190840956402 0.15190155050608353 -0.3228190840956402 0.15190155050608353 -0.3228190840956402 0.8480984494939166 0.3228190840956402
1.9446440745016586E7 0.852439863599394 0.3185308277753828 0.14756013640060592 -0.3185308277753828 0.14756013640060592 -0.3185308277753828 0.852439863599394 0.3185308277753828
1.9819500253939107E7 0.8566748632122705 0.3142406654650901 0.1433251367877294 -0.3142406654650901 0.1433251367877294 -0.3142406654650901 0.8566748632122705 0.3142406654650901
2.0199716517098684E7 0.8608047825692107 0.3099512168109104 0.1391952174307893 -0.3099512168109104 0.1391952174307893 -0.3099512168109104 0.8608047825692107 0.3099512168109104
2.0587226829296768E7 0.86483102588906 0.3056649979307086 0.13516897411094012 -0.30566499793070856 0.13516897411094012 -0.30566499793070856 0.86483102588906 0.3056649979307086
2.0982171119191162E7 0.8687550611169264 0.301384420639599 0.13124493888307365 -0.301384420639599 0.13124493888307365 -0.301384420639599 0.8687550611169264 0.301384420639599
2.138469199982376E7 0.8725784137896376 0.29711179204261634 0.1274215862103624 -0.29711179204261634 0.1274215862103624 -0.29711179204261634 0.8725784137896376 0.29711179204261634
2.1794934820117645E7 0.8763026610425847 0.2928493144757506 0.1236973389574153 -0.2928493144757506 0.1236973389574153 -0.2928493144757506 0.8763026610425847 0.2928493144757506
2.22130477173621E7 0.8799294257759219 0.2885990857757829 0.12007057422407809 -0.2885990857757829 0.12007057422407809 -0.2885990857757829 0.8799294257759219 0.2885990857757829
2.263918167070445E7 0.8834603709960778 0.28436309985873903 0.11653962900392216 -0.2843630998587391 0.11653962900392216 -0.2843630998587391 0.8834603709960778 0.28436309985873903
2.307349055566814E7 0.886897194346547 0.28014324758636094 0.113102805653453 -0.28014324758636094 0.113102805653453 -0.28014324758636094 0.886897194346547 0.28014324758636094
2.3516131199716687E7 0.8902416228400034 0.27594131789973514 0.10975837715999659 -0.2759413178997351 0.10975837715999659 -0.2759413178997351 0.8902416228400034 0.27594131789973514
2.396726343888349E7 0.8934954078019025 0.2717589991991288 0.10650459219809745 -0.2717589991991288 0.10650459219809745 -0.2717589991991288 0.8934954078019025 0.2717589991991288
2.4427050175488118E7 0.8966603200339428 0.26759788094912496 0.10333967996605725 -0.26759788094912496 0.10333967996605725 -0.26759788094912496 0.8966603200339428 0.26759788094912496
2.4895657436959792E7 0.8997381452040364 0.2634594554883294 0.10026185479596364 -0.26345945548832933 0.10026185479596364 -0.26345945548832933 0.8997381452040364 0.2634594554883294
2.5373254435789287E7 0.9027306794678072 0.2593451200232206 0.09726932053219285 -0.2593451200232206 0.09726932053219285 -0.2593451200232206 0.9027306794678072 0.2593451200232206
2.586001363063102E7 0.9056397253250863 0.2552561787861141 0.09436027467491385 -0.2552561787861141 0.09436027467491385 -0.2552561787861141 0.9056397253250863 0.2552561787861141
2.635611078857727E7 0.9084670877134304 0.25119384533770495 0.0915329122865696 -0.25119384533770495 0.0915329122865696 -0.25119384533770495 0.9084670877134304 0.25119384533770495
2.6861725048627086E7 0.9112145703393324 0.24715924499522993 0.08878542966066755 -0.24715924499522993 0.08878542966066755 -0.24715924499522993 0.9112145703393324 0.24715924499522993
2.737703898637277E7 0.9138839722465303 0.24315341736793414 0.08611602775346959 -0.24315341736793408 0.08611602775346959 -0.24315341736793408 0.9138839722465303 0.24315341736793414
2.7902238679927293E7 0.9164770846196681 0.2391773189822273 0.08352291538033167 -0.2391773189822273 0.08352291538033167 -0.2391773189822273 0.9164770846196681 0.2391773189822273
2.843751377711649E7 0.9189956878204862 0.2352318259796735 0.08100431217951375 -0.2352318259796735 0.08100431217951375 -0.2352318259796735 0.9189956878204862 0.2352318259796735
2.898305756396021E7 0.9214415486527502 0.23131773687174267 0.07855845134724995 -0.23131773687174267 0.07855845134724995 -0.23131773687174267 0.9214415486527502 0.23131773687174267
2.95390670344673E7 0.9238164178512459 0.22743577533608567 0.07618358214875395 -0.22743577533608558 0.07618358214875395 -0.22743577533608558 0.9238164178512459 0.22743577533608567
3.0105742961769406E7 0.9261220277893751 0.22358659303993758 0.07387797221062485 -0.22358659303993758 0.07387797221062485 -0.22358659303993758 0.9261220277893751 0.22358659303993758
3.068328997061952E7 0.9283600903991744 0.21977077247712604 0.07163990960082552 -0.2197707724771261 0.07163990960082552 -0.2197707724771261 0.9283600903991744 0.21977077247712604
3.1271916611281253E7 0.9305322952969715 0.21598882980603712 0.06946770470302864 -0.2159888298060371 0.06946770470302864 -0.2159888298060371 0.9305322952969715 0.21598882980603712
3.187183543483565E7 0.9326403081073329 0.21224121767677817 0.0673596918926671 -0.2122412176767782 0.0673596918926671 -0.2122412176767782 0.9326403081073329 0.21224121767677817
3.2483263069932636E7 0.9346857689775077 0.20852832803666543 0.06531423102249226 -0.2085283280366654 0.06531423102249226 -0.2085283280366654 0.9346857689775077 0.20852832803666543
3.310642030101491E7 0.9366702912741669 0.20485049490404136 0.06332970872583311 -0.2048504949040414 0.06332970872583311 -0.2048504949040414 0.9366702912741669 0.20485049490404136
3.3741532148042455E7 0.938595460453928 0.2012079971013087 0.061404539546071925 -0.20120799710130868 0.061404539546071925 -0.20120799710130868 0.938595460453928 0.2012079971013087
3.438882794774647E7 0.940462833098895 0.1976010609389273 0.05953716690110492 -0.1976010609389273 0.05953716690110492 -0.1976010609389273 0.940462833098895 0.1976010609389273
3.504854143644208E7 0.9422739361082557 0.19402986284297008 0.05772606389174426 -0.19402986284297008 0.05772606389174426 -0.19402986284297008 0.9422739361082557 0.19402986284297008
3.572091083442975E7 0.9440302660368521 0.19049453191966587 0.05596973396314784 -0.1904945319196658 0.05596973396314784 -0.1904945319196658 0.9440302660368521 0.19049453191966587
3.640617893201581E7 0.9457332885715686 0.18699515245116535 0.05426671142843135 -0.18699515245116533 0.05426671142843135 -0.18699515245116533 0.9457332885715686 0.18699515245116535
3.7104593177183196E7 0.9473844381363665 0.18353176631755272 0.05261556186363339 -0.18353176631755272 0.05261556186363339 -0.18353176631755272 0.9473844381363665 0.18353176631755272
3.781640576494413E7 0.9489851176168326 0.18010437534088514 0.051014882383167426 -0.1801043753408851 0.051014882383167426 -0.1801043753408851 0.9489851176168326 0.18010437534088514
3.85418737284068E7 0.950536698195191 0.1767129435477708 0.04946330180480899 -0.17671294354777076 0.04946330180480899 -0.17671294354777076 0.950536698195191 0.1767129435477708
3.928125903158923E7 0.9520405192868635 0.17335739934769867 0.04795948071313655 -0.1733573993476987 0.04795948071313655 -0.1733573993476987 0.9520405192868635 0.17335739934769867
4.003482866401353E7 0.9534978885698281 0.17003763762499696 0.046502111430171966 -0.17003763762499696 0.046502111430171966 -0.17003763762499696 0.9534978885698281 0.17003763762499696
4.080285473711493E7 0.9549100820982457 0.1667535217429277 0.04508991790175423 -0.1667535217429277 0.04508991790175423 -0.1667535217429277 0.9549100820982457 0.1667535217429277
4.158561458250031E7 0.9562783444920646 0.1635048854590243 0.043721655507935345 -0.16350488545902434 0.043721655507935345 -0.16350488545902434 0.9562783444920646 0.1635048854590243
4.2383390852091655E7 0.957603889194593 0.16029153475132948 0.04239611080540694 -0.16029153475132948 0.04239611080540694 -0.16029153475132948 0.957603889194593 0.16029153475132948
4.319647162019081E7 0.95888789879034 0.15711324955571093 0.041112101209660176 -0.15711324955571096 0.041112101209660176 -0.15711324955571096 0.95888789879034 0.15711324955571093
4.402515048750197E7 0.9601315253757493 0.1539697854149128 0.03986847462425064 -0.15396978541491282 0.03986847462425064 -0.15396978541491282 0.9601315253757493 0.1539697854149128
4.486972668715004E7 0.9613358909758144 0.15086087504042894 0.038664109024185656 -0.15086087504042894 0.038664109024185656 -0.15086087504042894 0.9613358909758144 0.15086087504042894
4.573050519273264E7 0.9625020879999178 0.14778622978868622 0.03749791200008226 -0.14778622978868625 0.03749791200008226 -0.14778622978868625 0.9625020879999178 0.14778622978868622
4.6607796828445025E7 0.9636311797306396 0.14474554105337675 0.03636882026936037 -0.14474554105337673 0.03636882026936037 -0.14474554105337673 0.9636311797306396 0.14474554105337675
4.750191838131767E7 0.9647242008396599 0.14173848157608723 0.03527579916034 -0.14173848157608723 0.03527579916034 -0.14173848157608723 0.9647242008396599 0.14173848157608723
4.8413192715607E7 0.9657821579252884 0.13876470667764856 0.03421784207471161 -0.13876470667764862 0.03421784207471161 -0.13876470667764862 0.9657821579252884 0.13876470667764856
4.934194888938056E7 0.9668060300665556 0.13582385541285813 0.033193969933444346 -0.1358238554128581 0.033193969933444346 -0.1358238554128581 0.9668060300665556 0.13582385541285813
5.0288522273338735E7 0.9677967693892083 0.13291555165141572 0.032203230610791646 -0.1329155516514157 0.032203230610791646 -0.1329155516514157 0.9677967693892083 0.13291555165141572
5.125325467191602E7 0.9687553016393459 0.13003940508807382 0.03124469836065415 -0.13003940508807385 0.03124469836065415 -0.13003940508807385 0.9687553016393459 0.13003940508807382
5.223649444670544E7 0.9696825267608354 0.12719501218511522 0.030317473239164592 -0.12719501218511522 0.030317473239164592 -0.12719501218511522 0.9696825267608354 0.12719501218511522
5.32385966422507E7 0.9705793194730268 0.12438195705035578 0.029420680526973206 -0.12438195705035578 0.029420680526973206 -0.12438195705035578 0.9705793194730268 0.12438195705035578
5.425992311425159E7 0.971446529845661 0.12159981225392215 0.02855347015433893 -0.12159981225392219 0.02855347015433893 -0.12159981225392219 0.971446529845661 0.12159981225392215
5.530084266022885E7 0.9722849838682295 0.11884813958707226 0.027715016131770583 -0.11884813958707226 0.027715016131770583 -0.11884813958707226 0.9722849838682295 0.11884813958707226
5.63617311526957E7 0.9730954840113819 0.11612649076632045 0.026904515988618052 -0.11612649076632045 0.026904515988618052 -0.11612649076632045 0.9730954840113819 0.11612649076632045
5.744297167488412E7 0.9738788097783136 0.113434408086096 0.026121190221686262 -0.113434408086096 0.026121190221686262 -0.113434408086096 0.9738788097783136 0.113434408086096
5.8544954659074895E7 0.9746357182443635 0.11077142502310745 0.02536428175563658 -0.11077142502310748 0.02536428175563658 -0.11077142502310748 0.9746357182443635 0.11077142502310745
5.9668078027581416E7 0.9753669445833477 0.10813706679550919 0.02463305541665221 -0.10813706679550918 0.02463305541665221 -0.10813706679550918 0.9753669445833477 0.10813706679550919
6.0812747336438075E7 0.9760732025794233 0.10553085087987309 0.02392679742057679 -0.1055308508798731 0.02392679742057679 -0.1055308508798731 0.9760732025794233 0.10553085087987309
6.197937592184514E7 0.9767551851235103 0.10295228748886011 0.02324481487648979 -0.1029522874888601 0.02324481487648979 -0.1029522874888601 0.9767551851235103 0.10295228748886011
6.3168385049423054E7 0.9774135646935422 0.10040088001236182 0.02258643530645777 -0.10040088001236182 0.02258643530645777 -0.10040088001236182 0.9774135646935422 0.10040088001236182
6.438020406633007E7 0.9780489938180014 0.09787612542475478 0.021951006181998557 -0.09787612542475477 0.021951006181998557 -0.09787612542475477 0.9780489938180014 0.09787612542475478
6.561527055629799E7 0.9786621055223858 0.09537751466076685 0.021337894477614194 -0.09537751466076687 0.021337894477614194 -0.09537751466076687 0.9786621055223858 0.09537751466076685
6.6874030497642204E7 0.9792535137584114 0.09290453296231205 0.02074648624158875 -0.09290453296231206 0.02074648624158875 -0.09290453296231206 0.9792535137584114 0.09290453296231205
6.815693842430294E7 0.979823813815892 0.09045666019850039 0.020176186184108044 -0.09045666019850038 0.020176186184108044 -0.09045666019850038 0.979823813815892 0.09045666019850039
6.946445758997591E7 0.9803735827173621 0.08803337116087823 0.019626417282637983 -0.08803337116087824 0.019626417282637983 -0.08803337116087824 0.9803735827173621 0.08803337116087823
7.079706013539167E7 0.9809033795956014 0.08563413583580676 0.019096620404398613 -0.08563413583580679 0.019096620404398613 -0.08563413583580679 0.9809033795956014 0.08563413583580676
7.215522725880398E7 0.9814137460543136 0.08325841965573232 0.018586253945686398 -0.08325841965573232 0.018586253945686398 -0.08325841965573232 0.9814137460543136 0.08325841965573232
7.353944938974898E7 0.9819052065122679 0.08090568373096108 0.018094793487732155 -0.0809056837309611 0.018094793487732155 -0.0809056837309611 0.9819052065122679 0.08090568373096108
7.495022636613746E7 0.9823782685312693 0.07857538506340658 0.017621731468730695 -0.07857538506340657 0.017621731468730695 -0.07857538506340657 0.9823782685312693 0.07857538506340658
7.638806761474478E7 0.982833423128359 0.0762669767436396 0.017166576871641095 -0.07626697674363961 0.017166576871641095 -0.07626697674363961 0.982833423128359 0.0762669767436396
7.785349233516307E7 0.9832711450726661 0.07397990813244318 0.016728854927333874 -0.0739799081324432 0.016728854927333874 -0.0739799081324432 0.9832711450726661 0.07397990813244318
